(1760621870.019009) can0 320#00000E591B500300
(1760621870.038950) can0 5D0#C01461002847
(1760621870.039970) can0 320#00000E591B500300
(1760621870.039972) can0 420#83FFFF00B7326400
(1760621870.039973) can0 520#8D87000080F0E804
(1760621870.048444) can0 572#0700000000000000
(1760621870.058999) can0 320#00000E591B500300
(1760621870.064659) can0 288#FCB7804E4E509900
(1760621870.065681) can0 271#0700000000000000
(1760621870.065682) can0 050#0000000000000000
(1760621870.066693) can0 5A0#FFE40200000000AD
(1760621870.066695) can0 1A0#0000581B0000000D
(1760621870.066696) can0 280#490E480D0E001B0E
(1760621870.079002) can0 320#00000E591B500300
(1760621870.099052) can0 390#1000000044000000
(1760621870.100067) can0 320#00000E591B100400
(1760621870.119028) can0 320#00000E591B100400
(1760621870.138939) can0 5D0#C01461002847
(1760621870.139950) can0 320#00000E591B100400
(1760621870.158999) can0 320#00000E591B100400
(1760621870.164720) can0 288#FCB7804E4E509900
(1760621870.165747) can0 271#0700000000000000
(1760621870.165748) can0 050#0000000000000000
(1760621870.166751) can0 5A0#FF780300000000AD
(1760621870.166753) can0 1A0#0000581B0000000D
(1760621870.166754) can0 280#490E480D0E001B0E
(1760621870.179001) can0 320#00000E591B100400
(1760621870.199010) can0 390#1000000044000000
(1760621870.200025) can0 320#00000E591B100500
(1760621870.218973) can0 320#00000E591B100500
(1760621870.238956) can0 51A#FEFFFFFFFFFFFF01
(1760621870.239973) can0 5D0#C01461002847
(1760621870.239974) can0 320#00000E591B100500
(1760621870.239976) can0 420#83FFFF00B7326400
(1760621870.239978) can0 520#15C0000080F0E804
(1760621870.241001) can0 5D2#0000000000000000
(1760621870.248554) can0 572#0700000000000000
(1760621870.258961) can0 320#00000E591B100500
(1760621870.264852) can0 288#FCB7804E4E509900
(1760621870.265878) can0 271#0700000000000000
(1760621870.265879) can0 050#0000000000000000
(1760621870.266883) can0 5A0#FF0C0400000000AD
(1760621870.266885) can0 1A0#0000581B0000000D
(1760621870.266886) can0 280#490E480D0E001B0E
(1760621870.278964) can0 320#00000E591B100500
(1760621870.299004) can0 390#1000000044000000
(1760621870.300014) can0 320#00000E591BD00500
(1760621870.319009) can0 320#00000E591BD00500
(1760621870.338895) can0 5D0#C01461002847
(1760621870.339904) can0 320#00000E591BD00500
(1760621870.358948) can0 320#00000E591BD00500
(1760621870.364962) can0 288#FCB7804E4E509900
(1760621870.365974) can0 271#0700000000000000
(1760621870.365975) can0 050#0000000000000000
(1760621870.366995) can0 5A0#FFA00400000000AD
(1760621870.366996) can0 1A0#0000581B0000000D
(1760621870.366997) can0 280#490E480D0E001B0E
(1760621870.378951) can0 320#00000E591BD00500
(1760621870.399010) can0 390#1000000044000000
(1760621870.400012) can0 320#00000E591B900600
(1760621870.418969) can0 320#00000E591B900600
(1760621870.438915) can0 5D0#C01461002847
(1760621870.439926) can0 320#00000E591B900600
(1760621870.439928) can0 420#83FFFF00B7326400
(1760621870.439931) can0 520#0200000080F0E804
(1760621870.448673) can0 572#0700000000000000
(1760621870.458988) can0 320#00000E591B900600
(1760621870.465088) can0 288#FCB7804E4E509900
(1760621870.466119) can0 271#0700000000000000
(1760621870.466121) can0 050#0000000000000000
(1760621870.467140) can0 5A0#FF340500000000AD
(1760621870.467141) can0 1A0#0000581B0000000D
(1760621870.467142) can0 280#490E480D0E001B0E
(1760621870.478982) can0 320#00000E591B900600
(1760621870.499029) can0 390#1000000044000000
(1760621870.500038) can0 320#00000E591B900700
(1760621870.518989) can0 320#00000E591B900700
(1760621870.538941) can0 5D0#C01461002847
(1760621870.539949) can0 320#00000E591B900700
(1760621870.558983) can0 320#00000E591B900700
(1760621870.565216) can0 288#FCB7804E4E509900
(1760621870.566234) can0 271#0700000000000000
(1760621870.566235) can0 050#0000000000000000
(1760621870.567245) can0 5A0#FFC80500000000AD
(1760621870.567246) can0 1A0#0000581B0000000D
(1760621870.567247) can0 280#490E480D0E001B0E
(1760621870.578964) can0 320#00000E591B900700
(1760621870.599021) can0 390#1000000044000000
(1760621870.600021) can0 320#00000E591B500800
(1760621870.619005) can0 320#00000E591B500800
(1760621870.638917) can0 5D0#C01461002847
(1760621870.639917) can0 320#00000E591B500800
(1760621870.639919) can0 420#83FFFF00B7326400
(1760621870.639921) can0 520#614C000080F0E804
(1760621870.648781) can0 572#0700000000000000
(1760621870.658975) can0 320#00000E591B500800
(1760621870.665349) can0 288#FCB7804E4E509900
(1760621870.666362) can0 271#0700000000000000
(1760621870.666364) can0 050#0000000000000000
(1760621870.667400) can0 5A0#FF5C0600000000AD
(1760621870.667401) can0 1A0#0000581B0000000D
(1760621870.667402) can0 280#490E480D0E001B0E
(1760621870.678959) can0 320#00000E591B500800
(1760621870.698986) can0 390#1000000044000000
(1760621870.699996) can0 320#00000E591B100900
(1760621870.718957) can0 320#00000E591B100900
(1760621870.738955) can0 51A#FFFFFFFFFFFFFF01
(1760621870.739972) can0 5D0#C01461002847
(1760621870.739973) can0 320#00000E591B100900
(1760621870.758948) can0 320#00000E591B100900
(1760621870.765465) can0 288#FCB7804E4E509900
(1760621870.766484) can0 271#0700000000000000
(1760621870.766485) can0 050#0000000000000000
(1760621870.767499) can0 5A0#FFF00600000000AD
(1760621870.767500) can0 1A0#0000581B0000000D
(1760621870.767501) can0 280#490E480D0E001B0E
(1760621870.778953) can0 320#00000E591B100900
(1760621870.799006) can0 390#1000000044000000
(1760621870.800031) can0 320#00000E591B100A00
(1760621870.818951) can0 320#00000E591B100A00
(1760621870.838886) can0 5D0#C01461002847
(1760621870.839909) can0 320#00000E591B100A00
(1760621870.839910) can0 420#83FFFF00B7326400
(1760621870.839913) can0 520#8D87000080F0E804
(1760621870.848923) can0 572#0700000000000000
(1760621870.858986) can0 320#00000E591B100A00
(1760621870.865577) can0 288#FCB7804E4E509900
(1760621870.866595) can0 271#0700000000000000
(1760621870.866597) can0 050#0000000000000000
(1760621870.867613) can0 5A0#FF840700000000AD
(1760621870.867615) can0 1A0#0000581B0000000D
(1760621870.868625) can0 280#490E480D0E001B0E
(1760621870.878948) can0 320#00000E591B100A00
(1760621870.898986) can0 390#1000000044000000
(1760621870.899997) can0 320#00000E591BD00A00
(1760621870.918991) can0 320#00000E591BD00A00
(1760621870.938890) can0 5D0#C01461002847
(1760621870.939914) can0 320#00000E591BD00A00
(1760621870.958980) can0 320#00000E591BD00A00
(1760621870.965678) can0 288#FCB7804E4E509900
(1760621870.966692) can0 271#0700000000000000
(1760621870.966693) can0 050#0000000000000000
(1760621870.967703) can0 5A0#FF180800000000AD
(1760621870.967705) can0 1A0#0000581B0000000D
(1760621870.968713) can0 280#490E480D0E001B0E
(1760621870.978917) can0 320#00000E591BD00A00
(1760621870.998947) can0 390#1000000044000000
(1760621870.999957) can0 320#00000E591B900B00
(1760621871.018922) can0 320#00000E591B900B00
(1760621871.038876) can0 5D0#C01461002847
(1760621871.039887) can0 320#00000E591B900B00
(1760621871.039888) can0 420#83FFFF00B7326400
(1760621871.039890) can0 520#15C0000080F0E804
(1760621871.049022) can0 572#0700000000000000
(1760621871.058952) can0 320#00000E591B900B00
(1760621871.065799) can0 288#FCB7804E4E509900
(1760621871.066811) can0 271#0700000000000000
(1760621871.066812) can0 050#0000000000000000
(1760621871.067822) can0 5A0#FFAC0800000000AD
(1760621871.067823) can0 280#490E480D0E001B0E
(1760621871.068832) can0 1A0#0000581B0000000D
(1760621871.078924) can0 320#00000E591B900B00
(1760621871.098959) can0 390#1000000044000000
(1760621871.099973) can0 320#00000E591B900C00
(1760621871.118926) can0 320#00000E591B900C00
(1760621871.138850) can0 5D0#C01461002847
(1760621871.139860) can0 320#00000E591B900C00
(1760621871.158945) can0 320#00000E591B900C00
(1760621871.165938) can0 288#FCB7804E4E509900
(1760621871.166951) can0 271#0700000000000000
(1760621871.166952) can0 050#0000000000000000
(1760621871.167972) can0 5A0#FF400900000000AD
(1760621871.167974) can0 280#490E480D0E001B0E
(1760621871.167975) can0 1A0#0000581B0000000D
(1760621871.178897) can0 320#00000E591B900C00
(1760621871.198938) can0 390#1000000044000000
(1760621871.199948) can0 320#00000E591B500D00
(1760621871.218945) can0 320#00000E591B500D00
(1760621871.238931) can0 51A#FCFFFFFFFFFFFF01
(1760621871.239938) can0 5D0#C01461002847
(1760621871.239940) can0 320#00000E591B500D00
(1760621871.239941) can0 420#83FFFF00B7326400
(1760621871.239943) can0 520#0200000080F0E804
(1760621871.240950) can0 5D2#0000000000000000
(1760621871.250412) can0 572#0700000000000000
(1760621871.258971) can0 320#00000E591B500D00
(1760621871.266056) can0 288#FCB7804E4E509900
(1760621871.267057) can0 271#0700000000000000
(1760621871.267059) can0 050#0000000000000000
(1760621871.268072) can0 5A0#FFD40900000000AD
(1760621871.268073) can0 280#490E480D0E001B0E
(1760621871.269090) can0 1A0#0000581B0000000D
(1760621871.278934) can0 320#00000E591B500D00
(1760621871.298985) can0 390#1000000044000000
(1760621871.299994) can0 320#00000E591B100E00
(1760621871.318937) can0 320#00000E591B100E00
(1760621871.338885) can0 5D0#C01461002847
(1760621871.339908) can0 320#00000E591B100E00
(1760621871.358943) can0 320#00000E591B100E00
(1760621871.366152) can0 288#FCB7804E4E509900
(1760621871.367159) can0 271#0700000000000000
(1760621871.367161) can0 050#0000000000000000
(1760621871.368187) can0 5A0#FF680A00000000AD
(1760621871.368188) can0 280#490E480D0E001B0E
(1760621871.369190) can0 1A0#0000581B0000000D
(1760621871.378900) can0 320#00000E591B100E00
(1760621871.398939) can0 390#1000000044000000
(1760621871.399948) can0 320#00000E591B100F00
(1760621871.418942) can0 320#00000E591B100F00
(1760621871.438845) can0 5D0#C01461002847
(1760621871.439860) can0 320#00000E591B100F00
(1760621871.439862) can0 420#83FFFF00B7326400
(1760621871.439864) can0 520#614C000080F0E804
(1760621871.449252) can0 572#0700000000000000
(1760621871.458895) can0 320#00000E591B100F00
(1760621871.466292) can0 288#FCB7804E4E509900
(1760621871.467318) can0 271#0700000000000000
(1760621871.467319) can0 050#0000000000000000
(1760621871.468318) can0 5A0#FFFC0A00000000AD
(1760621871.468319) can0 280#490E480D0E001B0E
(1760621871.469350) can0 1A0#0000581B0000000D
(1760621871.478913) can0 320#00000E591B100F00
(1760621871.498960) can0 390#1000000044000000
(1760621871.499169) can0 320#00000E591BD00F00
(1760621871.518930) can0 320#00000E591BD00F00
(1760621871.538889) can0 5D0#C01461002847
(1760621871.539893) can0 320#00000E591BD00F00
(1760621871.558903) can0 320#00000E591BD00F00
(1760621871.566448) can0 288#FCB7804E4E509900
(1760621871.567448) can0 271#0700000000000000
(1760621871.567449) can0 050#0000000000000000
(1760621871.568455) can0 5A0#FF900B00000000AD
(1760621871.568457) can0 280#490E480D0E001B0E
(1760621871.569467) can0 1A0#0000581B0000000D
(1760621871.578891) can0 320#00000E591BD00F00
(1760621871.598950) can0 390#1000000044000000
(1760621871.599959) can0 320#00000E591B901000
(1760621871.618929) can0 320#00000E591B901000
(1760621871.638848) can0 5D0#C01461002847
(1760621871.639858) can0 320#00000E591B901000
(1760621871.639860) can0 420#83FFFF00B7326400
(1760621871.639863) can0 520#8D87000080F0E804
(1760621871.649412) can0 572#0700000000000000
(1760621871.658928) can0 320#00000E591B901000
(1760621871.666578) can0 288#FCB7804E4E509900
(1760621871.667592) can0 271#0700000000000000
(1760621871.667593) can0 050#0000000000000000
(1760621871.668602) can0 5A0#FF240C00000000AD
(1760621871.668604) can0 280#490E480D0E001B0E
(1760621871.669621) can0 1A0#0000581B0000000D
(1760621871.678924) can0 320#00000E591B901000
(1760621871.698937) can0 390#1000000044000000
(1760621871.699956) can0 320#00000E591B901100
(1760621871.718936) can0 320#00000E591B901100
(1760621871.738922) can0 51A#FDFFFFFFFFFFFF01
(1760621871.739929) can0 5D0#C01461002847
(1760621871.739931) can0 320#00000E591B901100
(1760621871.758876) can0 320#00000E591B901100
(1760621871.766708) can0 288#FCB7804E4E509900
(1760621871.767711) can0 271#0700000000000000
(1760621871.767712) can0 050#0000000000000000
(1760621871.768720) can0 5A0#FFB80C00000000AD
(1760621871.768721) can0 280#490E480D0E001B0E
(1760621871.769736) can0 1A0#0000581B0000000D
(1760621871.778861) can0 320#00000E591B901100
(1760621871.798919) can0 390#1000000044000000
(1760621871.799930) can0 320#00000E591B501200
(1760621871.818889) can0 320#00000E591B501200
(1760621871.838813) can0 5D0#C01461002847
(1760621871.839841) can0 320#00000E591B501200
(1760621871.839842) can0 420#83FFFF00B7326400
(1760621871.839844) can0 520#15C0000080F0E804
(1760621871.849541) can0 572#0700000000000000
(1760621871.858876) can0 320#00000E591B501200
(1760621871.866815) can0 288#FCB7804E4E509900
(1760621871.867840) can0 271#0700000000000000
(1760621871.867841) can0 050#0000000000000000
(1760621871.868844) can0 5A0#FF4C0D00000000AD
(1760621871.868846) can0 1A0#0000581B0000000D
(1760621871.869860) can0 280#490E480D0E001B0E
(1760621871.878856) can0 320#00000E591B501200
(1760621871.898897) can0 390#1000000044000000
(1760621871.899916) can0 320#00000E591B101300
(1760621871.918900) can0 320#00000E591B101300
(1760621871.938796) can0 5D0#C01461002847
(1760621871.939808) can0 320#00000E591B101300
(1760621871.958856) can0 320#00000E591B101300
(1760621871.966943) can0 288#FCB7804E4E509900
(1760621871.967970) can0 271#0700000000000000
(1760621871.967971) can0 050#0000000000000000
(1760621871.968970) can0 5A0#FFE00D00000000AD
(1760621871.968971) can0 1A0#0000581B0000000D
(1760621871.969984) can0 280#490E480D0E001B0E
(1760621871.978877) can0 320#00000E591B101300
(1760621871.998887) can0 390#1000000044000000
(1760621871.999904) can0 320#00000E591B101400
(1760621872.018886) can0 320#00000E591B101400
(1760621872.038871) can0 5D0#C01461002847
(1760621872.039879) can0 320#00000E591B101400
(1760621872.039881) can0 420#83FFFF00B7326400
(1760621872.039883) can0 520#0200000080F0E804
(1760621872.049652) can0 572#0700000000000000
(1760621872.058876) can0 320#00000E591B101400
(1760621872.067099) can0 288#FCB7804E4E509900
(1760621872.068101) can0 271#0700000000000000
(1760621872.068102) can0 050#0000000000000000
(1760621872.069109) can0 5A0#FF740E00000000AD
(1760621872.069110) can0 1A0#0000581B0000000D
(1760621872.070124) can0 280#490E480D0E001B0E
(1760621872.078881) can0 320#00000E591B101400
(1760621872.098929) can0 390#1000000044000000
(1760621872.099942) can0 320#00000E591BD01400
(1760621872.118911) can0 320#00000E591BD01400
(1760621872.138813) can0 5D0#C01461002847
(1760621872.139828) can0 320#00000E591BD01400
(1760621872.158900) can0 320#00000E591BD01400
(1760621872.167236) can0 288#FCB7804E4E509900
(1760621872.168252) can0 271#0700000000000000
(1760621872.168253) can0 050#0000000000000000
(1760621872.169272) can0 5A0#FF080F00000000AD
(1760621872.169273) can0 1A0#0000581B0000000D
(1760621872.170290) can0 280#490E480D0E001B0E
(1760621872.178858) can0 320#00000E591BD01400
(1760621872.198889) can0 390#1000000044000000
(1760621872.199903) can0 320#00000E591B901500
(1760621872.218883) can0 320#00000E591B901500
(1760621872.238860) can0 51A#FEFFFFFFFFFFFF01
(1760621872.239861) can0 5D0#C01461002847
(1760621872.239862) can0 320#00000E591B901500
(1760621872.239864) can0 420#83FFFF00B7326400
(1760621872.239866) can0 520#614C000080F0E804
(1760621872.240870) can0 5D2#0000000000000000
(1760621872.249781) can0 572#0700000000000000
(1760621872.258860) can0 320#00000E591B901500
(1760621872.267360) can0 288#FCB7804E4E509900
(1760621872.268360) can0 271#0700000000000000
(1760621872.268361) can0 050#0000000000000000
(1760621872.269376) can0 5A0#FF9C0F00000000AD
(1760621872.269377) can0 1A0#0000581B0000000D
(1760621872.270389) can0 280#490E480D0E001B0E
(1760621872.278867) can0 320#00000E591B901500
(1760621872.298877) can0 390#1000000044000000
(1760621872.299893) can0 320#00000E591B901600
(1760621872.318864) can0 320#00000E591B901600
(1760621872.338805) can0 5D0#C01461002847
(1760621872.339817) can0 320#00000E591B901600
(1760621872.358884) can0 320#00000E591B901600
(1760621872.367491) can0 288#FCB7804E4E509900
(1760621872.368491) can0 271#0700000000000000
(1760621872.368493) can0 050#0000000000000000
(1760621872.369496) can0 5A0#FF301000000000AD
(1760621872.369497) can0 1A0#0000581B0000000D
(1760621872.370515) can0 280#490E480D0E001B0E
(1760621872.378841) can0 320#00000E591B901600
(1760621872.398902) can0 390#1000000044000000
(1760621872.399913) can0 320#00000E591B501700
(1760621872.418879) can0 320#00000E591B501700
(1760621872.438817) can0 5D0#C01461002847
(1760621872.439827) can0 320#00000E591B501700
(1760621872.439829) can0 420#83FFFF00B7326400
(1760621872.439831) can0 520#8D87000080F0E804
(1760621872.449882) can0 572#0700000000000000
(1760621872.458900) can0 320#00000E591B501700
(1760621872.467574) can0 288#FCB7804E4E509900
(1760621872.468585) can0 271#0700000000000000
(1760621872.468586) can0 050#0000000000000000
(1760621872.469623) can0 5A0#FFC41000000000AD
(1760621872.469624) can0 280#490E480D0E001B0E
(1760621872.470629) can0 1A0#0000581B0000000D
(1760621872.478847) can0 320#00000E591B501700
(1760621872.498890) can0 390#1000000044000000
(1760621872.499903) can0 320#00000E591B101800
(1760621872.518879) can0 320#00000E591B101800
(1760621872.538807) can0 5D0#C01461002847
(1760621872.539821) can0 320#00000E591B101800
(1760621872.558888) can0 320#00000E591B101800
(1760621872.567684) can0 288#FCB7804E4E509900
(1760621872.568695) can0 271#0700000000000000
(1760621872.568696) can0 050#0000000000000000
(1760621872.569706) can0 5A0#FF581100000000AD
(1760621872.570722) can0 1A0#0000581B0000000D
(1760621872.570724) can0 280#490E480D0E001B0E
(1760621872.578822) can0 320#00000E591B101800
(1760621872.598852) can0 390#1000000044000000
(1760621872.599879) can0 320#00000E591B101900
(1760621872.618839) can0 320#00000E591B101900
(1760621872.638757) can0 5D0#C01461002847
(1760621872.639772) can0 320#00000E591B101900
(1760621872.639773) can0 420#83FFFF00B7326400
(1760621872.639775) can0 520#15C0000080F0E804
(1760621872.650041) can0 572#0700000000000000
(1760621872.658839) can0 320#00000E591B101900
(1760621872.667792) can0 288#FCB7804E4E509900
(1760621872.668804) can0 271#0700000000000000
(1760621872.668806) can0 050#0000000000000000
(1760621872.669813) can0 5A0#FFEC1100000000AD
(1760621872.670830) can0 1A0#0000581B0000000D
(1760621872.670832) can0 280#490E480D0E001B0E
(1760621872.678831) can0 320#00000E591B101900
(1760621872.698855) can0 390#1000000044000000
(1760621872.699083) can0 320#00000E591BD01900
(1760621872.718837) can0 320#00000E591BD01900
(1760621872.738837) can0 51A#FFFFFFFFFFFFFF01
(1760621872.739852) can0 5D0#C01461002847
(1760621872.739853) can0 320#00000E591BD01900
(1760621872.758842) can0 320#00000E591BD01900
(1760621872.767887) can0 288#FCB7804E4E509900
(1760621872.768895) can0 271#0700000000000000
(1760621872.768897) can0 050#0000000000000000
(1760621872.769906) can0 5A0#FF801200000000AD
(1760621872.770926) can0 1A0#0000581B0000000D
(1760621872.770927) can0 280#490E480D0E001B0E
(1760621872.778821) can0 320#00000E591BD01900
(1760621872.798860) can0 390#1000000044000000
(1760621872.799870) can0 320#00000E591B901A00
(1760621872.818842) can0 320#00000E591B901A00
(1760621872.838802) can0 5D0#C01461002847
(1760621872.839817) can0 320#00000E591B901A00
(1760621872.839818) can0 420#83FFFF00B7326400
(1760621872.839819) can0 520#0200000080F0E804
(1760621872.851270) can0 572#0700000000000000
(1760621872.858893) can0 320#00000E591B901A00
(1760621872.868034) can0 288#FCB7804E4E509900
(1760621872.869049) can0 271#0700000000000000
(1760621872.869051) can0 050#0000000000000000
(1760621872.870068) can0 5A0#FF141300000000AD
(1760621872.871079) can0 1A0#0000581B0000000D
(1760621872.871080) can0 280#490E480D0E001B0E
(1760621872.878832) can0 320#00000E591B901A00
(1760621872.898894) can0 390#1000000044000000
(1760621872.899905) can0 320#00000E591B901B00
(1760621872.918839) can0 320#00000E591B901B00
(1760621872.938773) can0 5D0#C01461002847
(1760621872.939778) can0 320#00000E591B901B00
(1760621872.958900) can0 320#00000E591B901B00
(1760621872.968148) can0 288#FCB7804E4E509900
(1760621872.969158) can0 271#0700000000000000
(1760621872.969160) can0 050#0000000000000000
(1760621872.970166) can0 5A0#FFA81300000000AD
(1760621872.971181) can0 1A0#0000581B0000000D
(1760621872.971182) can0 280#490E480D0E001B0E
(1760621872.978802) can0 320#00000E591B901B00
(1760621872.998845) can0 390#1000000044000000
(1760621872.999857) can0 320#00000E591B501C00
(1760621873.018862) can0 320#00000E591B501C00
(1760621873.038778) can0 5D0#C01461002847
(1760621873.039784) can0 320#00000E591B501C00
(1760621873.039786) can0 420#83FFFF00B7326400
(1760621873.039787) can0 520#614C000080F0E804
(1760621873.050278) can0 572#0700000000000000
(1760621873.058813) can0 320#00000E591B501C00
(1760621873.068278) can0 288#FCB7804E4E509900
(1760621873.069282) can0 271#0700000000000000
(1760621873.069284) can0 050#0000000000000000
(1760621873.070292) can0 5A0#FF3C1400000000AD
(1760621873.071309) can0 1A0#0000581B0000000D
(1760621873.071310) can0 280#490E480D0E001B0E
(1760621873.078818) can0 320#00000E591B501C00
(1760621873.098848) can0 390#1000000044000000
(1760621873.099864) can0 320#00000E591B101D00
(1760621873.118809) can0 320#00000E591B101D00
(1760621873.138759) can0 5D0#C01461002847
(1760621873.139782) can0 320#00000E591B101D00
(1760621873.158797) can0 320#00000E591B101D00
(1760621873.168385) can0 288#FCB7804E4E509900
(1760621873.169410) can0 271#0700000000000000
(1760621873.169412) can0 050#0000000000000000
(1760621873.170411) can0 5A0#FFD01400000000AD
(1760621873.171434) can0 1A0#0000581B0000000D
(1760621873.171435) can0 280#490E480D0E001B0E
(1760621873.178793) can0 320#00000E591B101D00
(1760621873.198858) can0 390#1000000044000000
(1760621873.199869) can0 320#00000E591B101E00
(1760621873.218822) can0 320#00000E591B101E00
(1760621873.238808) can0 51A#FCFFFFFFFFFFFF01
(1760621873.239817) can0 5D0#C01461002847
(1760621873.239819) can0 320#00000E591B101E00
(1760621873.239821) can0 420#83FFFF00B7326400
(1760621873.239822) can0 520#8D87000080F0E804
(1760621873.240831) can0 5D2#0000000000000000
(1760621873.250434) can0 572#0700000000000000
(1760621873.258847) can0 320#00000E591B101E00
(1760621873.268540) can0 288#FCB7804E4E509900
(1760621873.269551) can0 271#0700000000000000
(1760621873.269552) can0 050#0000000000000000
(1760621873.270564) can0 5A0#FF641500000000AD
(1760621873.271576) can0 1A0#0000581B0000000D
(1760621873.271577) can0 280#490E480D0E001B0E
(1760621873.278806) can0 320#00000E591B101E00
(1760621873.298844) can0 390#1000000044000000
(1760621873.299855) can0 320#00000E591BD01E00
(1760621873.318841) can0 320#00000E591BD01E00
(1760621873.338727) can0 5D0#C01461002847
(1760621873.339742) can0 320#00000E591BD01E00
(1760621873.358777) can0 320#00000E591BD01E00
(1760621873.368628) can0 288#FCB7804E4E509900
(1760621873.369656) can0 271#0700000000000000
(1760621873.369657) can0 050#0000000000000000
(1760621873.370670) can0 5A0#FFF81500000000AD
(1760621873.371673) can0 280#490E480D0E001B0E
(1760621873.371674) can0 1A0#0000581B0000000D
(1760621873.378797) can0 320#00000E591BD01E00
(1760621873.398816) can0 390#1000000044000000
(1760621873.399824) can0 320#00000E591B901F00
(1760621873.418798) can0 320#00000E591B901F00
(1760621873.438713) can0 5D0#C01461002847
(1760621873.439724) can0 320#00000E591B901F00
(1760621873.439726) can0 420#83FFFF00B7326400
(1760621873.439727) can0 520#15C0000080F0E804
(1760621873.450556) can0 572#0700000000000000
(1760621873.458763) can0 320#00000E591B901F00
(1760621873.468768) can0 288#FCB7804E4E509900
(1760621873.469799) can0 271#0700000000000000
(1760621873.469801) can0 050#0000000000000000
(1760621873.470806) can0 5A0#FF8C1600000000AD
(1760621873.471820) can0 1A0#0000581B0000000D
(1760621873.471821) can0 280#490E480D0E001B0E
(1760621873.478763) can0 320#00000E591B901F00
(1760621873.498801) can0 390#1000000044000000
(1760621873.499812) can0 320#00000E591B902000
(1760621873.518775) can0 320#00000E591B902000
(1760621873.538731) can0 5D0#C01461002847
(1760621873.539745) can0 320#00000E591B902000
(1760621873.558776) can0 320#00000E591B902000
(1760621873.568883) can0 288#FCB7804E4E509900
(1760621873.569900) can0 050#0000000000000000
(1760621873.569901) can0 271#0700000000000000
(1760621873.570934) can0 5A0#FF201700000000AD
(1760621873.571933) can0 1A0#0000581B0000000D
(1760621873.571934) can0 280#490E480D0E001B0E
(1760621873.578789) can0 320#00000E591B902000
(1760621873.598827) can0 390#1000000044000000
(1760621873.599835) can0 320#00000E591B502100
(1760621873.618811) can0 320#00000E591B502100
(1760621873.638764) can0 5D0#C01461002847
(1760621873.639781) can0 320#00000E591B502100
(1760621873.639784) can0 420#83FFFF00B7326400
(1760621873.639786) can0 520#0200000080F0E804
(1760621873.650687) can0 572#0700000000000000
(1760621873.658783) can0 320#00000E591B502100
(1760621873.669013) can0 288#FCB7804E4E509900
(1760621873.670026) can0 050#0000000000000000
(1760621873.670027) can0 271#0700000000000000
(1760621873.671037) can0 5A0#FFB41700000000AD
(1760621873.672061) can0 1A0#0000581B0000000D
(1760621873.672062) can0 280#490E480D0E001B0E
(1760621873.678783) can0 320#00000E591B502100
(1760621873.698841) can0 390#1000000044000000
(1760621873.699856) can0 320#00000E591B102200
(1760621873.718814) can0 320#00000E591B102200
(1760621873.738760) can0 51A#FDFFFFFFFFFFFF01
(1760621873.739784) can0 5D0#C01461002847
(1760621873.739786) can0 320#00000E591B102200
(1760621873.758788) can0 320#00000E591B102200
(1760621873.769205) can0 288#FCB7804E4E509900
(1760621873.770213) can0 271#0700000000000000
(1760621873.770215) can0 050#0000000000000000
(1760621873.771225) can0 5A0#FF481800000000AD
(1760621873.772233) can0 1A0#0000581B0000000D
(1760621873.772234) can0 280#490E480D0E001B0E
(1760621873.778754) can0 320#00000E591B102200
(1760621873.798795) can0 390#1000000044000000
(1760621873.799817) can0 320#00000E591B102300
(1760621873.818790) can0 320#00000E591B102300
(1760621873.838700) can0 5D0#C01461002847
(1760621873.839715) can0 320#00000E591B102300
(1760621873.839718) can0 420#83FFFF00B7326400
(1760621873.839719) can0 520#614C000080F0E804
(1760621873.850833) can0 572#0700000000000000
(1760621873.858760) can0 320#00000E591B102300
(1760621873.869335) can0 288#FCB7804E4E509900
(1760621873.870347) can0 050#0000000000000000
(1760621873.870348) can0 271#0700000000000000
(1760621873.871367) can0 5A0#FFDC1800000000AD
(1760621873.872387) can0 1A0#0000581B0000000D
(1760621873.872389) can0 280#490E480D0E001B0E
(1760621873.878769) can0 320#00000E591B102300
(1760621873.898800) can0 390#1000000044000000
(1760621873.899823) can0 320#00000E591BD02300
(1760621873.918774) can0 320#00000E591BD02300
(1760621873.938706) can0 5D0#C01461002847
(1760621873.939722) can0 320#00000E591BD02300
(1760621873.958749) can0 320#00000E591BD02300
(1760621873.969467) can0 288#FCB7804E4E509900
(1760621873.970477) can0 050#0000000000000000
(1760621873.970478) can0 271#0700000000000000
(1760621873.971499) can0 5A0#FF701900000000AD
(1760621873.972514) can0 1A0#0000581B0000000D
(1760621873.972516) can0 280#490E480D0E001B0E
(1760621873.978751) can0 320#00000E591BD02300
(1760621873.998829) can0 390#1000000044000000
(1760621873.999833) can0 320#00000E591B902400
(1760621874.018775) can0 320#00000E591B902400
(1760621874.038734) can0 5D0#C01461002847
(1760621874.039744) can0 320#00000E591B902400
(1760621874.039746) can0 420#83FFFF00B7326400
(1760621874.039747) can0 520#8D87000080F0E804
(1760621874.052120) can0 572#0700000000000000
(1760621874.058788) can0 320#00000E591B902400
(1760621874.069593) can0 288#FCB7804E4E509900
(1760621874.070604) can0 050#0000000000000000
(1760621874.070605) can0 271#0700000000000000
(1760621874.071615) can0 5A0#FF041A00000000AD
(1760621874.072625) can0 1A0#0000581B0000000D
(1760621874.072626) can0 280#490E480D0E001B0E
(1760621874.078778) can0 320#00000E591B902400
(1760621874.098803) can0 390#1000000044000000
(1760621874.099834) can0 320#00000E591B902500
(1760621874.118762) can0 320#00000E591B902500
(1760621874.138665) can0 5D0#C01461002847
(1760621874.139678) can0 320#00000E591B902500
(1760621874.158764) can0 320#00000E591B902500
(1760621874.169736) can0 288#FCB7804E4E509900
(1760621874.170748) can0 271#0700000000000000
(1760621874.170749) can0 050#0000000000000000
(1760621874.171764) can0 5A0#FF981A00000000AD
(1760621874.172784) can0 1A0#0000581B0000000D
(1760621874.172785) can0 280#490E480D0E001B0E
(1760621874.178722) can0 320#00000E591B902500
(1760621874.198762) can0 390#1000000044000000
(1760621874.199773) can0 320#00000E591B502600
(1760621874.218745) can0 320#00000E591B502600
(1760621874.238720) can0 51A#FEFFFFFFFFFFFF01
(1760621874.239729) can0 5D0#C01461002847
(1760621874.239732) can0 320#00000E591B502600
(1760621874.239733) can0 420#83FFFF00B7326400
(1760621874.239737) can0 520#15C0000080F0E804
(1760621874.240736) can0 5D2#0000000000000000
(1760621874.252239) can0 572#0700000000000000
(1760621874.258784) can0 320#00000E591B502600
(1760621874.269844) can0 288#FCB7804E4E509900
(1760621874.270849) can0 050#0000000000000000
(1760621874.270850) can0 271#0700000000000000
(1760621874.271860) can0 5A0#FF2C1B00000000AD
(1760621874.272872) can0 1A0#0000581B0000000D
(1760621874.272873) can0 280#490E480D0E001B0E
(1760621874.278719) can0 320#00000E591B502600
(1760621874.298752) can0 390#1000000044000000
(1760621874.299762) can0 320#00000E591B102700
(1760621874.318726) can0 320#00000E591B102700
(1760621874.338657) can0 5D0#C01461002847
(1760621874.339674) can0 320#00000E591B102700
(1760621874.358801) can0 320#00000E591B102700
(1760621874.369989) can0 288#FCB7804E4E509900
(1760621874.371005) can0 050#0000000000000000
(1760621874.371006) can0 271#0700000000000000
(1760621874.372014) can0 5A0#FFC01B00000000AD
(1760621874.373026) can0 1A0#0000581B0000000D
(1760621874.373027) can0 280#490E480D0E001B0E
(1760621874.378758) can0 320#00000E591B102700
(1760621874.398770) can0 390#1000000044000000
(1760621874.399785) can0 320#00000E591B102800
(1760621874.418755) can0 320#00000E591B102800
(1760621874.438696) can0 5D0#C01461002847
(1760621874.439728) can0 320#00000E591B102800
(1760621874.439730) can0 420#83FFFF00B7326400
(1760621874.439731) can0 520#0200000080F0E804
(1760621874.452368) can0 572#0700000000000000
(1760621874.458795) can0 320#00000E591B102800
(1760621874.470050) can0 288#FCB7804E4E509900
(1760621874.471060) can0 050#0000000000000000
(1760621874.471061) can0 271#0700000000000000
(1760621874.472077) can0 5A0#FF541C00000000AD
(1760621874.473104) can0 1A0#0000581B0000000D
(1760621874.473105) can0 280#490E480D0E001B0E
(1760621874.478741) can0 320#00000E591B102800
(1760621874.498791) can0 390#1000000044000000
(1760621874.499803) can0 320#00000E591BD02800
(1760621874.518748) can0 320#00000E591BD02800
(1760621874.538681) can0 5D0#C01461002847
(1760621874.539690) can0 320#00000E591BD02800
(1760621874.558752) can0 320#00000E591BD02800
(1760621874.570186) can0 288#FCB7804E4E509900
(1760621874.571197) can0 050#0000000000000000
(1760621874.571198) can0 271#0700000000000000
(1760621874.572205) can0 5A0#FFE81C00000000AD
(1760621874.573234) can0 1A0#0000581B0000000D
(1760621874.573235) can0 280#490E480D0E001B0E
(1760621874.578709) can0 320#00000E591BD02800
(1760621874.598766) can0 390#1000000044000000
(1760621874.599775) can0 320#00000E591B902900
(1760621874.618736) can0 320#00000E591B902900
(1760621874.638650) can0 5D0#C01461002847
(1760621874.639665) can0 320#00000E591B902900
(1760621874.639667) can0 420#83FFFF00B7326400
(1760621874.639668) can0 520#614C000080F0E804
(1760621874.653114) can0 572#0700000000000000
(1760621874.658698) can0 320#00000E591B902900
(1760621874.670299) can0 288#FCB7804E4E509900
(1760621874.671317) can0 050#0000000000000000
(1760621874.671318) can0 271#0700000000000000
(1760621874.672330) can0 5A0#FF7C1D00000000AD
(1760621874.673341) can0 1A0#0000581B0000000D
(1760621874.673342) can0 280#490E480D0E001B0E
(1760621874.678718) can0 320#00000E591B902900
(1760621874.698745) can0 390#1000000044000000
(1760621874.699756) can0 320#00000E591B902A00
(1760621874.718742) can0 320#00000E591B902A00
(1760621874.738723) can0 51A#FFFFFFFFFFFFFF01
(1760621874.739744) can0 5D0#C01461002847
(1760621874.739747) can0 320#00000E591B902A00
(1760621874.758709) can0 320#00000E591B902A00
(1760621874.770404) can0 288#FCB7804E4E509900
(1760621874.771419) can0 050#0000000000000000
(1760621874.771421) can0 271#0700000000000000
(1760621874.772430) can0 5A0#FF101E00000000AD
(1760621874.773446) can0 1A0#0000581B0000000D
(1760621874.773447) can0 280#490E480D0E001B0E
(1760621874.778727) can0 320#00000E591B902A00
(1760621874.798777) can0 390#1000000044000000
(1760621874.799786) can0 320#00000E591B502B00
(1760621874.818748) can0 320#00000E591B502B00
(1760621874.838655) can0 5D0#C01461002847
(1760621874.839672) can0 320#00000E591B502B00
(1760621874.839674) can0 420#83FFFF00B7326400
(1760621874.839676) can0 520#8D87000080F0E804
(1760621874.852627) can0 572#0700000000000000
(1760621874.858750) can0 320#00000E591B502B00
(1760621874.870533) can0 288#FCB7804E4E509900
(1760621874.871549) can0 050#0000000000000000
(1760621874.871550) can0 271#0700000000000000
(1760621874.872574) can0 5A0#FFA41E00000000AD
(1760621874.873587) can0 1A0#0000581B0000000D
(1760621874.873588) can0 280#490E480D0E001B0E
(1760621874.878700) can0 320#00000E591B502B00
(1760621874.898753) can0 390#1000000044000000
(1760621874.899752) can0 320#00000E591B102C00
(1760621874.918696) can0 320#00000E591B102C00
(1760621874.938631) can0 5D0#C01461002847
(1760621874.939638) can0 320#00000E591B102C00
(1760621874.958681) can0 320#00000E591B102C00
(1760621874.970641) can0 288#FCB7804E4E509900
(1760621874.971657) can0 050#0000000000000000
(1760621874.971659) can0 271#0700000000000000
(1760621874.972667) can0 5A0#FF381F00000000AD
(1760621874.973676) can0 1A0#0000581B0000000D
(1760621874.973677) can0 280#490E480D0E001B0E
(1760621874.978673) can0 320#00000E591B102C00
(1760621874.998716) can0 390#1000000044000000
(1760621874.999728) can0 320#00000E591B102D00
(1760621875.018688) can0 320#00000E591B102D00
(1760621875.038647) can0 5D0#C01461002847
(1760621875.039656) can0 320#00000E591B102D00
(1760621875.039658) can0 420#83FFFF00B7326400
(1760621875.039661) can0 520#15C0000080F0E804
(1760621875.052764) can0 572#0700000000000000
(1760621875.058690) can0 320#00000E591B102D00
(1760621875.070772) can0 288#FCB7804E4E509900
(1760621875.071790) can0 050#0000000000000000
(1760621875.071791) can0 271#0700000000000000
(1760621875.072824) can0 5A0#FFCC1F00000000AD
(1760621875.073817) can0 1A0#0000581B0000000D
(1760621875.073818) can0 280#490E480D0E001B0E
(1760621875.078669) can0 320#00000E591B102D00
(1760621875.098708) can0 390#1000000044000000
(1760621875.099716) can0 320#00000E591BD02D00
(1760621875.118704) can0 320#00000E591BD02D00
(1760621875.138643) can0 5D0#C01461002847
(1760621875.139645) can0 320#00000E591BD02D00
(1760621875.158690) can0 320#00000E591BD02D00
(1760621875.170930) can0 288#FCB7804E4E509900
(1760621875.171944) can0 050#0000000000000000
(1760621875.171946) can0 271#0700000000000000
(1760621875.172965) can0 5A0#FF602000000000AD
(1760621875.172967) can0 1A0#0000581B0000000D
(1760621875.173977) can0 280#490E480D0E001B0E
(1760621875.178731) can0 320#00000E591BD02D00
(1760621875.198729) can0 390#1000000044000000
(1760621875.199746) can0 320#00000E591B902E00
(1760621875.218705) can0 320#00000E591B902E00
(1760621875.238735) can0 51A#FCFFFFFFFFFFFF01
(1760621875.239752) can0 5D0#C01461002847
(1760621875.239755) can0 320#00000E591B902E00
(1760621875.239756) can0 420#83FFFF00B7326400
(1760621875.239759) can0 520#0200000080F0E804
(1760621875.240772) can0 5D2#0000000000000000
(1760621875.252879) can0 572#0700000000000000
(1760621875.258751) can0 320#00000E591B902E00
(1760621875.271062) can0 288#FCB7804E4E509900
(1760621875.272080) can0 050#0000000000000000
(1760621875.272081) can0 271#0700000000000000
(1760621875.273092) can0 5A0#FFF42000000000AD
(1760621875.273094) can0 1A0#0000581B0000000D
(1760621875.274105) can0 280#490E480D0E001B0E
(1760621875.278689) can0 320#00000E591B902E00
(1760621875.298749) can0 390#1000000044000000
(1760621875.299773) can0 320#00000E591B902F00
(1760621875.318676) can0 320#00000E591B902F00
(1760621875.338620) can0 5D0#C01461002847
(1760621875.339627) can0 320#00000E591B902F00
(1760621875.358706) can0 320#00000E591B902F00
(1760621875.371170) can0 288#FCB7804E4E509900
(1760621875.372182) can0 050#0000000000000000
(1760621875.372184) can0 271#0700000000000000
(1760621875.373198) can0 5A0#FF882100000000AD
(1760621875.373200) can0 1A0#0000581B0000000D
(1760621875.374215) can0 280#490E480D0E001B0E
(1760621875.378660) can0 320#00000E591B902F00
(1760621875.398699) can0 390#1000000044000000
(1760621875.399709) can0 320#00000E591B503000
(1760621875.418708) can0 320#00000E591B503000
(1760621875.438607) can0 5D0#C01461002847
(1760621875.439618) can0 320#00000E591B503000
(1760621875.439620) can0 420#83FFFF00B7326400
(1760621875.439623) can0 520#614C000080F0E804
(1760621875.453010) can0 572#0700000000000000
(1760621875.458709) can0 320#00000E591B503000
(1760621875.471282) can0 288#FCB7804E4E509900
(1760621875.472283) can0 050#0000000000000000
(1760621875.473291) can0 271#0700000000000000
(1760621875.473293) can0 5A0#FF1C2200000000AD
(1760621875.473295) can0 1A0#0000581B0000000D
(1760621875.474308) can0 280#490E480D0E001B0E
(1760621875.478691) can0 320#00000E591B503000
(1760621875.498698) can0 390#1000000044000000
(1760621875.499706) can0 320#00000E591B103100
(1760621875.518661) can0 320#00000E591B103100
(1760621875.538666) can0 5D0#C01461002847
(1760621875.539675) can0 320#00000E591B103100
(1760621875.558705) can0 320#00000E591B103100
(1760621875.571395) can0 288#FCB7804E4E509900
(1760621875.572413) can0 050#0000000000000000
(1760621875.573416) can0 271#0700000000000000
(1760621875.573418) can0 5A0#FFB02200000000AD
(1760621875.573419) can0 1A0#0000581B0000000D
(1760621875.574434) can0 280#490E480D0E001B0E
(1760621875.578668) can0 320#00000E591B103100
(1760621875.598727) can0 390#1000000044000000
(1760621875.599740) can0 320#00000E591B103200
(1760621875.618683) can0 320#00000E591B103200
(1760621875.638609) can0 5D0#C01461002847
(1760621875.639625) can0 320#00000E591B103200
(1760621875.639626) can0 420#83FFFF00B7326400
(1760621875.639628) can0 520#8D87000080F0E804
(1760621875.653106) can0 572#0700000000000000
(1760621875.658730) can0 320#00000E591B103200
(1760621875.671516) can0 288#FCB7804E4E509900
(1760621875.672545) can0 271#0700000000000000
(1760621875.673545) can0 5A0#FF442300000000AD
(1760621875.673546) can0 050#0000000000000000
(1760621875.673548) can0 1A0#0000581B0000000D
(1760621875.674559) can0 280#490E480D0E001B0E
(1760621875.678633) can0 320#00000E591B103200
(1760621875.698673) can0 390#1000000044000000
(1760621875.699683) can0 320#00000E591BD03200
(1760621875.718671) can0 320#00000E591BD03200
(1760621875.738634) can0 51A#FDFFFFFFFFFFFF01
(1760621875.739648) can0 5D0#C01461002847
(1760621875.739650) can0 320#00000E591BD03200
(1760621875.758636) can0 320#00000E591BD03200
(1760621875.771639) can0 288#FCB7804E4E509900
(1760621875.772655) can0 271#0700000000000000
(1760621875.773675) can0 5A0#FFD82300000000AD
(1760621875.773677) can0 050#0000000000000000
(1760621875.773678) can0 1A0#0000581B0000000D
(1760621875.774684) can0 280#490E480D0E001B0E
(1760621875.778633) can0 320#00000E591BD03200
(1760621875.798675) can0 390#1000000044000000
(1760621875.799677) can0 320#00000E591B903300
(1760621875.818636) can0 320#00000E591B903300
(1760621875.838592) can0 5D0#C01461002847
(1760621875.839609) can0 320#00000E591B903300
(1760621875.839612) can0 420#83FFFF00B7326400
(1760621875.839613) can0 520#15C0000080F0E804
(1760621875.853234) can0 572#0700000000000000
(1760621875.858619) can0 320#00000E591B903300
(1760621875.871772) can0 288#FCB7804E4E509900
(1760621875.872834) can0 271#0700000000000000
(1760621875.873851) can0 050#0000000000000000
(1760621875.873852) can0 5A0#FF6C2400000000AD
(1760621875.873854) can0 1A0#0000581B0000000D
(1760621875.874867) can0 280#490E480D0E001B0E
(1760621875.878618) can0 320#00000E591B903300
(1760621875.898662) can0 390#1000000044000000
(1760621875.899680) can0 320#00000E591B903400
(1760621875.918657) can0 320#00000E591B903400
(1760621875.938589) can0 5D0#C01461002847
(1760621875.939605) can0 320#00000E591B903400
(1760621875.958641) can0 320#00000E591B903400
(1760621875.971891) can0 288#FCB7804E4E509900
(1760621875.973007) can0 271#0700000000000000
(1760621875.974036) can0 050#0000000000000000
(1760621875.974038) can0 5A0#FF002500000000AD
(1760621875.974039) can0 1A0#0000581B0000000D
(1760621875.974040) can0 280#490E480D0E001B0E
(1760621875.978667) can0 320#00000E591B903400
(1760621875.998700) can0 390#1000000044000000
(1760621875.999714) can0 320#00000E591B503500
(1760621876.018679) can0 320#00000E591B503500
(1760621876.038639) can0 5D0#C01461002847
(1760621876.039643) can0 320#00000E591B503500
(1760621876.039644) can0 420#83FFFF00B7326400
(1760621876.039646) can0 520#0200000080F0E804
(1760621876.054441) can0 572#0700000000000000
(1760621876.058653) can0 320#00000E591B503500
(1760621876.072032) can0 288#FCB7804E4E509900
(1760621876.073145) can0 271#0700000000000000
(1760621876.074160) can0 050#0000000000000000
(1760621876.074162) can0 5A0#FF942500000000AD
(1760621876.074163) can0 1A0#0000581B0000000D
(1760621876.074164) can0 280#490E480D0E001B0E
(1760621876.078619) can0 320#00000E591B503500
(1760621876.098765) can0 390#1000000044000000
(1760621876.099782) can0 320#00000E591B103600
(1760621876.118646) can0 320#00000E591B103600
(1760621876.138570) can0 5D0#C01461002847
(1760621876.139569) can0 320#00000E591B103600
(1760621876.158638) can0 320#00000E591B103600
(1760621876.172195) can0 288#FCB7804E4E509900
(1760621876.173249) can0 271#0700000000000000
(1760621876.174262) can0 050#0000000000000000
(1760621876.174264) can0 5A0#FF282600000000AD
(1760621876.174265) can0 1A0#0000581B0000000D
(1760621876.174266) can0 280#490E480D0E001B0E
(1760621876.178632) can0 320#00000E591B103600
(1760621876.198697) can0 390#1000000044000000
(1760621876.199697) can0 320#00000E591B103700
(1760621876.218642) can0 320#00000E591B103700
(1760621876.238641) can0 51A#FEFFFFFFFFFFFF01
(1760621876.239650) can0 5D0#C01461002847
(1760621876.239652) can0 320#00000E591B103700
(1760621876.239653) can0 420#83FFFF00B7326400
(1760621876.239656) can0 520#614C000080F0E804
(1760621876.240665) can0 5D2#0000000000000000
(1760621876.253497) can0 572#0700000000000000
(1760621876.258731) can0 320#00000E591B103700
(1760621876.272325) can0 288#FCB7804E4E509900
(1760621876.273347) can0 271#0700000000000000
(1760621876.274364) can0 050#0000000000000000
(1760621876.274366) can0 5A0#FFBC2600000000AD
(1760621876.274368) can0 1A0#0000581B0000000D
(1760621876.274369) can0 280#490E480D0E001B0E
(1760621876.278627) can0 320#00000E591B103700
(1760621876.298641) can0 390#1000000044000000
(1760621876.299652) can0 320#00000E591BD03700
(1760621876.318637) can0 320#00000E591BD03700
(1760621876.338596) can0 5D0#C01461002847
(1760621876.339603) can0 320#00000E591BD03700
(1760621876.358637) can0 320#00000E591BD03700
(1760621876.372419) can0 288#FCB7804E4E509900
(1760621876.373456) can0 271#0700000000000000
(1760621876.374474) can0 050#0000000000000000
(1760621876.374476) can0 5A0#FF502700000000AD
(1760621876.374477) can0 1A0#0000581B0000000D
(1760621876.374478) can0 280#490E480D0E001B0E
(1760621876.378623) can0 320#00000E591BD03700
(1760621876.398729) can0 390#1000000044000000
(1760621876.399742) can0 320#00000E591BD03800
(1760621876.418634) can0 320#00000E591BD03800
(1760621876.438555) can0 5D0#C01461002847
(1760621876.439566) can0 320#00000E591BD03800
(1760621876.439568) can0 420#83FFFF00B7326400
(1760621876.439569) can0 520#8D87000080F0E804
(1760621876.453637) can0 572#0700000000000000
(1760621876.458593) can0 320#00000E591BD03800
(1760621876.472531) can0 288#FCB7804E4E509900
(1760621876.473587) can0 271#0700000000000000
(1760621876.474598) can0 050#0000000000000000
(1760621876.474599) can0 5A0#FFE42700000000AD
(1760621876.474600) can0 1A0#0000581B0000000D
(1760621876.474601) can0 280#490E480D0E001B0E
(1760621876.478601) can0 320#00000E591BD03800
(1760621876.498658) can0 390#1000000044000000
(1760621876.499667) can0 320#00000E591B903900
(1760621876.518599) can0 320#00000E591B903900
(1760621876.538567) can0 5D0#C01461002847
(1760621876.539590) can0 320#00000E591B903900
(1760621876.558593) can0 320#00000E591B903900
(1760621876.572662) can0 288#FCB7804E4E509900
(1760621876.573698) can0 271#0700000000000000
(1760621876.574718) can0 050#0000000000000000
(1760621876.574720) can0 5A0#FF782800000000AD
(1760621876.574721) can0 1A0#0000581B0000000D
(1760621876.574722) can0 280#490E480D0E001B0E
(1760621876.578593) can0 320#00000E591B903900
(1760621876.598659) can0 390#1000000044000000
(1760621876.599670) can0 320#00000E591B503A00
(1760621876.618623) can0 320#00000E591B503A00
(1760621876.638517) can0 5D0#C01461002847
(1760621876.639533) can0 320#00000E591B503A00
(1760621876.639535) can0 420#83FFFF00B7326400
(1760621876.639537) can0 520#15C0000080F0E804
(1760621876.653758) can0 572#0700000000000000
(1760621876.658568) can0 320#00000E591B503A00
(1760621876.672791) can0 288#FCB7804E4E509900
(1760621876.673830) can0 271#0700000000000000
(1760621876.674836) can0 050#0000000000000000
(1760621876.674837) can0 5A0#FF0C2900000000AD
(1760621876.674839) can0 1A0#0000581B0000000D
(1760621876.675849) can0 280#490E480D0E001B0E
(1760621876.678572) can0 320#00000E591B503A00
(1760621876.698671) can0 390#1000000044000000
(1760621876.699682) can0 320#00000E591B503B00
(1760621876.718624) can0 320#00000E591B503B00
(1760621876.738622) can0 51A#FFFFFFFFFFFFFF01
(1760621876.739629) can0 5D0#C01461002847
(1760621876.739631) can0 320#00000E591B503B00
(1760621876.758632) can0 320#00000E591B503B00
(1760621876.772940) can0 288#FCB7804E4E509900
(1760621876.773970) can0 271#0700000000000000
(1760621876.774979) can0 050#0000000000000000
(1760621876.774981) can0 5A0#FFA02900000000AD
(1760621876.774983) can0 1A0#0000581B0000000D
(1760621876.775986) can0 280#490E480D0E001B0E
(1760621876.778629) can0 320#00000E591B503B00
(1760621876.798638) can0 390#1000000044000000
(1760621876.799654) can0 320#00000E591B103C00
(1760621876.818620) can0 320#00000E591B103C00
(1760621876.838556) can0 5D0#C01461002847
(1760621876.839564) can0 320#00000E591B103C00
(1760621876.839567) can0 420#83FFFF00B7326400
(1760621876.839568) can0 520#0200000080F0E804
(1760621876.853867) can0 572#0700000000000000
(1760621876.858579) can0 320#00000E591B103C00
(1760621876.873058) can0 288#FCB7804E4E509900
(1760621876.874075) can0 271#0700000000000000
(1760621876.875081) can0 050#0000000000000000
(1760621876.875082) can0 5A0#FF342A00000000AD
(1760621876.875083) can0 1A0#0000581B0000000D
(1760621876.876108) can0 280#490E480D0E001B0E
(1760621876.878609) can0 320#00000E591B103C00
(1760621876.898631) can0 390#1000000044000000
(1760621876.899641) can0 320#00000E591BD03C00
(1760621876.918612) can0 320#00000E591BD03C00
(1760621876.938522) can0 5D0#C01461002847
(1760621876.939535) can0 320#00000E591BD03C00
(1760621876.958588) can0 320#00000E591BD03C00
(1760621876.973184) can0 288#FCB7804E4E509900
(1760621876.974196) can0 271#0700000000000000
(1760621876.975204) can0 050#0000000000000000
(1760621876.975206) can0 5A0#FFC82A00000000AD
(1760621876.975207) can0 1A0#0000581B0000000D
(1760621876.976220) can0 280#490E480D0E001B0E
(1760621876.978566) can0 320#00000E591BD03C00
(1760621876.998615) can0 390#1000000044000000
(1760621876.999627) can0 320#00000E591BD03D00
(1760621877.018618) can0 320#00000E591BD03D00
(1760621877.038536) can0 5D0#C01461002847
(1760621877.039545) can0 320#00000E591BD03D00
(1760621877.039546) can0 420#83FFFF00B7326400
(1760621877.039547) can0 520#614C000080F0E804
(1760621877.055045) can0 572#0700000000000000
(1760621877.058582) can0 320#00000E591BD03D00
(1760621877.073284) can0 288#FCB7804E4E509900
(1760621877.074295) can0 271#0700000000000000
(1760621877.075307) can0 050#0000000000000000
(1760621877.075308) can0 5A0#FF5C2B00000000AD
(1760621877.075310) can0 1A0#0000581B0000000D
(1760621877.076323) can0 280#490E480D0E001B0E
(1760621877.078583) can0 320#00000E591BD03D00
(1760621877.098620) can0 390#1000000044000000
(1760621877.099628) can0 320#00000E591B903E00
(1760621877.118622) can0 320#00000E591B903E00
(1760621877.138545) can0 5D0#C01461002847
(1760621877.139562) can0 320#00000E591B903E00
(1760621877.158574) can0 320#00000E591B903E00
(1760621877.173412) can0 288#FCB7804E4E509900
(1760621877.174429) can0 271#0700000000000000
(1760621877.175441) can0 050#0000000000000000
(1760621877.175443) can0 5A0#FFF02B00000000AD
(1760621877.175444) can0 1A0#0000581B0000000D
(1760621877.176453) can0 280#490E480D0E001B0E
(1760621877.178597) can0 320#00000E591B903E00
(1760621877.198634) can0 390#1000000044000000
(1760621877.199643) can0 320#00000E591B503F00
(1760621877.218628) can0 320#00000E591B503F00
(1760621877.238542) can0 51A#FCFFFFFFFFFFFF01
(1760621877.239555) can0 5D0#C01461002847
(1760621877.239557) can0 320#00000E591B503F00
(1760621877.239559) can0 420#83FFFF00B7326400
(1760621877.239562) can0 520#8D87000080F0E804
(1760621877.240565) can0 5D2#0000000000000000
(1760621877.254131) can0 572#0700000000000000
(1760621877.258635) can0 320#00000E591B503F00
(1760621877.273546) can0 288#FCB7804E4E509900
(1760621877.274538) can0 271#0700000000000000
(1760621877.275552) can0 050#0000000000000000
(1760621877.275554) can0 5A0#FF842C00000000AD
(1760621877.275555) can0 1A0#0000581B0000000D
(1760621877.276562) can0 280#490E480D0E001B0E
(1760621877.278532) can0 320#00000E591B503F00
(1760621877.298575) can0 390#1000000044000000
(1760621877.299586) can0 320#00000E591B504000
(1760621877.318559) can0 320#00000E591B504000
(1760621877.338490) can0 5D0#C01461002847
(1760621877.339509) can0 320#00000E591B504000
(1760621877.358539) can0 320#00000E591B504000
(1760621877.373674) can0 288#FCB7804E4E509900
(1760621877.374687) can0 271#0700000000000000
(1760621877.375698) can0 050#0000000000000000
(1760621877.375699) can0 5A0#FF182D00000000AD
(1760621877.375701) can0 1A0#0000581B0000000D
(1760621877.376714) can0 280#490E480D0E001B0E
(1760621877.378534) can0 320#00000E591B504000
(1760621877.398571) can0 390#1000000044000000
(1760621877.399612) can0 320#00000E591B104100
(1760621877.418545) can0 320#00000E591B104100
(1760621877.438467) can0 5D0#C01461002847
(1760621877.439478) can0 320#00000E591B104100
(1760621877.439479) can0 420#83FFFF00B7326400
(1760621877.439480) can0 520#15C0000080F0E804
(1760621877.454236) can0 572#0700000000000000
(1760621877.458537) can0 320#00000E591B104100
(1760621877.473795) can0 288#FCB7804E4E509900
(1760621877.474812) can0 271#0700000000000000
(1760621877.475829) can0 050#0000000000000000
(1760621877.475830) can0 1A0#0000581B0000000D
(1760621877.475832) can0 5A0#FFAC2D00000000AD
(1760621877.476841) can0 280#490E480D0E001B0E
(1760621877.478529) can0 320#00000E591B104100
(1760621877.498580) can0 390#1000000044000000
(1760621877.499590) can0 320#00000E591BD04100
(1760621877.518602) can0 320#00000E591BD04100
(1760621877.538520) can0 5D0#C01461002847
(1760621877.539530) can0 320#00000E591BD04100
(1760621877.558566) can0 320#00000E591BD04100
(1760621877.573916) can0 288#FCB7804E4E509900
(1760621877.574926) can0 271#0700000000000000
(1760621877.575941) can0 050#0000000000000000
(1760621877.575942) can0 1A0#0000581B0000000D
(1760621877.575944) can0 5A0#FF402E00000000AD
(1760621877.576950) can0 280#490E480D0E001B0E
(1760621877.578573) can0 320#00000E591BD04100
(1760621877.598647) can0 390#1000000044000000
(1760621877.599656) can0 320#00000E591BD04200
(1760621877.618564) can0 320#00000E591BD04200
(1760621877.638497) can0 5D0#C01461002847
(1760621877.639525) can0 320#00000E591BD04200
(1760621877.639527) can0 420#83FFFF00B7326400
(1760621877.639528) can0 520#0200000080F0E804
(1760621877.654961) can0 572#0700000000000000
(1760621877.658526) can0 320#00000E591BD04200
(1760621877.674037) can0 288#FCB7804E4E509900
(1760621877.675048) can0 271#0700000000000000
(1760621877.676064) can0 050#0000000000000000
(1760621877.676066) can0 1A0#0000581B0000000D
(1760621877.676067) can0 5A0#FFD42E00000000AD
(1760621877.677080) can0 280#490E480D0E001B0E
(1760621877.678527) can0 320#00000E591BD04200
(1760621877.698622) can0 390#1000000044000000
(1760621877.699632) can0 320#00000E591B904300
(1760621877.718538) can0 320#00000E591B904300
(1760621877.738531) can0 51A#FDFFFFFFFFFFFF01
(1760621877.739541) can0 5D0#C01461002847
(1760621877.739543) can0 320#00000E591B904300
(1760621877.758538) can0 320#00000E591B904300
(1760621877.774160) can0 288#FCB7804E4E509900
(1760621877.775171) can0 271#0700000000000000
(1760621877.776190) can0 050#0000000000000000
(1760621877.776191) can0 1A0#0000581B0000000D
(1760621877.776193) can0 5A0#FF682F00000000AD
(1760621877.777204) can0 280#490E480D0E001B0E
(1760621877.778532) can0 320#00000E591B904300
(1760621877.798564) can0 390#1000000044000000
(1760621877.799576) can0 320#00000E591B504400
(1760621877.818562) can0 320#00000E591B504400
(1760621877.838464) can0 5D0#C01461002847
(1760621877.839479) can0 320#00000E591B504400
(1760621877.839481) can0 420#83FFFF00B7326400
(1760621877.839483) can0 520#614C000080F0E804
(1760621877.855073) can0 572#0700000000000000
(1760621877.858536) can0 320#00000E591B504400
(1760621877.874286) can0 288#FCB7804E4E509900
(1760621877.875295) can0 271#0700000000000000
(1760621877.876306) can0 050#0000000000000000
(1760621877.876307) can0 1A0#0000581B0000000D
(1760621877.876308) can0 5A0#FFFC2F00000000AD
(1760621877.877320) can0 280#490E480D0E001B0E
(1760621877.878538) can0 320#00000E591B504400
(1760621877.898611) can0 390#1000000044000000
(1760621877.899631) can0 320#00000E591B504500
(1760621877.918539) can0 320#00000E591B504500
(1760621877.938508) can0 5D0#C01461002847
(1760621877.939518) can0 320#00000E591B504500
(1760621877.958545) can0 320#00000E591B504500
(1760621877.974416) can0 288#FCB7804E4E509900
(1760621877.975427) can0 271#0700000000000000
(1760621877.976441) can0 050#0000000000000000
(1760621877.976442) can0 1A0#0000581B0000000D
(1760621877.976443) can0 5A0#FF903000000000AD
(1760621877.977449) can0 280#490E480D0E001B0E
(1760621877.978543) can0 320#00000E591B504500
(1760621877.998617) can0 390#1000000044000000
(1760621877.999635) can0 320#00000E591B104600
(1760621878.018531) can0 320#00000E591B104600
(1760621878.038464) can0 5D0#C01461002847
(1760621878.039478) can0 320#00000E591B104600
(1760621878.039479) can0 420#83FFFF00B7326400
(1760621878.039482) can0 520#8D87000080F0E804
(1760621878.056256) can0 572#0700000000000000
(1760621878.058519) can0 320#00000E591B104600
(1760621878.074552) can0 288#FCB7804E4E509900
(1760621878.075567) can0 271#0700000000000000
(1760621878.076586) can0 050#0000000000000000
(1760621878.076588) can0 1A0#0000581B0000000D
(1760621878.076589) can0 280#490E480D0E001B0E
(1760621878.077603) can0 5A0#FF243100000000AD
(1760621878.078613) can0 320#00000E591B104600
(1760621878.098572) can0 390#1000000044000000
(1760621878.099588) can0 320#00000E591BD04600
(1760621878.118524) can0 320#00000E591BD04600
(1760621878.138434) can0 5D0#C01461002847
(1760621878.139443) can0 320#00000E591BD04600
(1760621878.158489) can0 320#00000E591BD04600
(1760621878.174678) can0 288#FCB7804E4E509900
(1760621878.175686) can0 271#0700000000000000
(1760621878.176706) can0 050#0000000000000000
(1760621878.176708) can0 1A0#0000581B0000000D
(1760621878.176709) can0 280#490E480D0E001B0E
(1760621878.177725) can0 5A0#FFB83100000000AD
(1760621878.178742) can0 320#00000E591BD04600
(1760621878.198584) can0 390#1000000044000000
(1760621878.199591) can0 320#00000E591BD04700
(1760621878.218491) can0 320#00000E591BD04700
(1760621878.238479) can0 51A#FEFFFFFFFFFFFF01
(1760621878.239489) can0 5D0#C01461002847
(1760621878.239490) can0 320#00000E591BD04700
(1760621878.239492) can0 420#83FFFF00B7326400
(1760621878.239496) can0 520#15C0000080F0E804
(1760621878.240515) can0 5D2#0000000000000000
(1760621878.254772) can0 572#0700000000000000
(1760621878.258573) can0 320#00000E591BD04700
(1760621878.274823) can0 288#FCB7804E4E509900
(1760621878.275847) can0 271#0700000000000000
(1760621878.276844) can0 050#0000000000000000
(1760621878.276846) can0 1A0#0000581B0000000D
(1760621878.276847) can0 5A0#FF4C3200000000AD
(1760621878.277854) can0 280#490E480D0E001B0E
(1760621878.278865) can0 320#00000E591BD04700
(1760621878.298562) can0 390#1000000044000000
(1760621878.299570) can0 320#00000E591B904800
(1760621878.318544) can0 320#00000E591B904800
(1760621878.338448) can0 5D0#C01461002847
(1760621878.339464) can0 320#00000E591B904800
(1760621878.358505) can0 320#00000E591B904800
(1760621878.374963) can0 288#FCB7804E4E509900
(1760621878.375977) can0 271#0700000000000000
(1760621878.376996) can0 050#0000000000000000
(1760621878.376998) can0 1A0#0000581B0000000D
(1760621878.376999) can0 5A0#FFE03200000000AD
(1760621878.378009) can0 280#490E480D0E001B0E
(1760621878.379026) can0 320#00000E591B904800
(1760621878.398537) can0 390#1000000044000000
(1760621878.399548) can0 320#00000E591B504900
(1760621878.418842) can0 320#00000E591B504900
(1760621878.438445) can0 5D0#C01461002847
(1760621878.439454) can0 320#00000E591B504900
(1760621878.439456) can0 420#83FFFF00B7326400
(1760621878.439458) can0 520#0200000080F0E804
(1760621878.455499) can0 572#0700000000000000
(1760621878.458495) can0 320#00000E591B504900
(1760621878.475076) can0 288#FCB7804E4E509900
(1760621878.476090) can0 271#0700000000000000
(1760621878.477105) can0 050#0000000000000000
(1760621878.477106) can0 1A0#0000581B0000000D
(1760621878.477108) can0 5A0#FF743300000000AD
(1760621878.478114) can0 280#490E480D0E001B0E
(1760621878.479125) can0 320#00000E591B504900
(1760621878.498574) can0 390#1000000044000000
(1760621878.499571) can0 320#00000E591B504A00
(1760621878.518488) can0 320#00000E591B504A00
(1760621878.538450) can0 5D0#C01461002847
(1760621878.539458) can0 320#00000E591B504A00
(1760621878.558497) can0 320#00000E591B504A00
(1760621878.575210) can0 288#FCB7804E4E509900
(1760621878.576228) can0 271#0700000000000000
(1760621878.577239) can0 050#0000000000000000
(1760621878.577241) can0 1A0#0000581B0000000D
(1760621878.577242) can0 280#490E480D0E001B0E
(1760621878.577243) can0 5A0#FF083400000000AD
(1760621878.578471) can0 320#00000E591B504A00
(1760621878.598511) can0 390#1000000044000000
(1760621878.599521) can0 320#00000E591B104B00
(1760621878.618497) can0 320#00000E591B104B00
(1760621878.638431) can0 5D0#C01461002847
(1760621878.639453) can0 320#00000E591B104B00
(1760621878.639454) can0 420#83FFFF00B7326400
(1760621878.639456) can0 520#614C000080F0E804
(1760621878.655648) can0 572#0700000000000000
(1760621878.658465) can0 320#00000E591B104B00
(1760621878.675329) can0 288#FCB7804E4E509900
(1760621878.676343) can0 271#0700000000000000
(1760621878.677356) can0 050#0000000000000000
(1760621878.677357) can0 1A0#0000581B0000000D
(1760621878.677358) can0 280#490E480D0E001B0E
(1760621878.677359) can0 5A0#FF9C3400000000AD
(1760621878.678488) can0 320#00000E591B104B00
(1760621878.698530) can0 390#1000000044000000
(1760621878.699538) can0 320#00000E591BD04B00
(1760621878.718511) can0 320#00000E591BD04B00
(1760621878.738534) can0 51A#FFFFFFFFFFFFFF01
(1760621878.739547) can0 5D0#C01461002847
(1760621878.739548) can0 320#00000E591BD04B00
(1760621878.758486) can0 320#00000E591BD04B00
(1760621878.775460) can0 288#FCB7804E4E509900
(1760621878.776461) can0 271#0700000000000000
(1760621878.777471) can0 050#0000000000000000
(1760621878.777473) can0 1A0#0000581B0000000D
(1760621878.777474) can0 280#490E480D0E001B0E
(1760621878.777476) can0 5A0#FF303500000000AD
(1760621878.778480) can0 320#00000E591BD04B00
(1760621878.798537) can0 390#1000000044000000
(1760621878.799547) can0 320#00000E591BD04C00
(1760621878.818469) can0 320#00000E591BD04C00
(1760621878.838392) can0 5D0#C01461002847
(1760621878.839406) can0 320#00000E591BD04C00
(1760621878.839407) can0 420#83FFFF00B7326400
(1760621878.839410) can0 520#8D87000080F0E804
(1760621878.855748) can0 572#0700000000000000
(1760621878.858501) can0 320#00000E591BD04C00
(1760621878.875558) can0 288#FCB7804E4E509900
(1760621878.876590) can0 271#0700000000000000
(1760621878.877603) can0 050#0000000000000000
(1760621878.877604) can0 1A0#0000581B0000000D
(1760621878.877605) can0 5A0#FFC43500000000AD
(1760621878.877606) can0 280#490E480D0E001B0E
(1760621878.878613) can0 320#00000E591BD04C00
(1760621878.898482) can0 390#1000000044000000
(1760621878.899498) can0 320#00000E591B904D00
(1760621878.918456) can0 320#00000E591B904D00
(1760621878.938390) can0 5D0#C01461002847
(1760621878.939401) can0 320#00000E591B904D00
(1760621878.958436) can0 320#00000E591B904D00
(1760621878.975721) can0 288#FCB7804E4E509900
(1760621878.976721) can0 271#0700000000000000
(1760621878.977732) can0 050#0000000000000000
(1760621878.977733) can0 1A0#0000581B0000000D
(1760621878.977734) can0 5A0#FF583600000000AD
(1760621878.977735) can0 280#490E480D0E001B0E
(1760621878.978742) can0 320#00000E591B904D00
(1760621878.998473) can0 390#1000000044000000
(1760621878.999480) can0 320#00000E591B504E00
(1760621879.018474) can0 320#00000E591B504E00
(1760621879.038406) can0 5D0#C01461002847
(1760621879.039421) can0 320#00000E591B504E00
(1760621879.039422) can0 420#83FFFF00B7326400
(1760621879.039424) can0 520#15C0000080F0E804
(1760621879.056909) can0 572#0700000000000000
(1760621879.058476) can0 320#00000E591B504E00
(1760621879.075833) can0 288#FCB7804E4E509900
(1760621879.076851) can0 271#0700000000000000
(1760621879.077864) can0 050#0000000000000000
(1760621879.077865) can0 1A0#0000581B0000000D
(1760621879.077866) can0 5A0#FFEC3600000000AD
(1760621879.077867) can0 280#490E480D0E001B0E
(1760621879.078872) can0 320#00000E591B504E00
(1760621879.098502) can0 390#1000000044000000
(1760621879.099510) can0 320#00000E591B504F00
(1760621879.118496) can0 320#00000E591B504F00
(1760621879.138406) can0 5D0#C01461002847
(1760621879.139419) can0 320#00000E591B504F00
(1760621879.158457) can0 320#00000E591B504F00
(1760621879.175954) can0 288#FCB7804E4E509900
(1760621879.176984) can0 271#0700000000000000
(1760621879.177996) can0 050#0000000000000000
(1760621879.177998) can0 1A0#0000581B0000000D
(1760621879.177999) can0 5A0#FF803700000000AD
(1760621879.178000) can0 280#490E480D0E001B0E
(1760621879.179008) can0 320#00000E591B504F00
(1760621879.198564) can0 390#1000000044000000
(1760621879.199572) can0 320#00000E591B105000
(1760621879.218456) can0 320#00000E591B105000
(1760621879.238463) can0 51A#FCFFFFFFFFFFFF01
(1760621879.239486) can0 5D0#C01461002847
(1760621879.239488) can0 320#00000E591B105000
(1760621879.239489) can0 420#83FFFF00B7326400
(1760621879.239491) can0 520#0200000080F0E804
(1760621879.240485) can0 5D2#0000000000000000
(1760621879.255361) can0 572#0700000000000000
(1760621879.258486) can0 320#00000E591B105000
(1760621879.276062) can0 288#FCB7804E4E509900
(1760621879.277070) can0 271#0700000000000000
(1760621879.278087) can0 050#0000000000000000
(1760621879.278089) can0 1A0#0000581B0000000D
(1760621879.278090) can0 5A0#FF143800000000AD
(1760621879.278091) can0 280#490E480D0E001B0E
(1760621879.279112) can0 320#00000E591B105000
(1760621879.298489) can0 390#1000000044000000
(1760621879.299501) can0 320#00000E591BD05000
(1760621879.318460) can0 320#00000E591BD05000
(1760621879.338384) can0 5D0#C01461002847
(1760621879.339404) can0 320#00000E591BD05000
(1760621879.358452) can0 320#00000E591BD05000
(1760621879.376197) can0 288#FCB7804E4E509900
(1760621879.377205) can0 271#0700000000000000
(1760621879.378219) can0 050#0000000000000000
(1760621879.378221) can0 1A0#0000581B0000000D
(1760621879.378222) can0 5A0#FFA83800000000AD
(1760621879.378223) can0 280#490E480D0E001B0E
(1760621879.379243) can0 320#00000E591BD05000
(1760621879.398494) can0 390#1000000044000000
(1760621879.399502) can0 320#00000E591BD05100
(1760621879.418460) can0 320#00000E591BD05100
(1760621879.438374) can0 5D0#C01461002847
(1760621879.439381) can0 320#00000E591BD05100
(1760621879.439382) can0 420#83FFFF00B7326400
(1760621879.439383) can0 520#614C000080F0E804
(1760621879.456063) can0 572#0700000000000000
(1760621879.458446) can0 320#00000E591BD05100
(1760621879.476289) can0 288#FCB7804E4E509900
(1760621879.477302) can0 271#0700000000000000
(1760621879.478315) can0 050#0000000000000000
(1760621879.478317) can0 1A0#0000581B0000000D
(1760621879.478318) can0 5A0#FF3C3900000000AD
(1760621879.479334) can0 280#490E480D0E001B0E
(1760621879.479336) can0 320#00000E591BD05100
(1760621879.498526) can0 390#1000000044000000
(1760621879.499527) can0 320#00000E591B905200
(1760621879.518443) can0 320#00000E591B905200
(1760621879.538426) can0 5D0#C01461002847
(1760621879.539446) can0 320#00000E591B905200
(1760621879.558425) can0 320#00000E591B905200
(1760621879.576411) can0 288#FCB7804E4E509900
(1760621879.577421) can0 271#0700000000000000
(1760621879.578434) can0 050#0000000000000000
(1760621879.578435) can0 1A0#0000581B0000000D
(1760621879.578437) can0 5A0#FFD03900000000AD
(1760621879.579446) can0 320#00000E591B905200
(1760621879.579447) can0 280#490E480D0E001B0E
(1760621879.598563) can0 390#1000000044000000
(1760621879.599573) can0 320#00000E591B505300
(1760621879.618438) can0 320#00000E591B505300
(1760621879.638336) can0 5D0#C01461002847
(1760621879.639348) can0 320#00000E591B505300
(1760621879.639349) can0 420#83FFFF00B7326400
(1760621879.639351) can0 520#8D87000080F0E804
(1760621879.657395) can0 572#0700000000000000
(1760621879.658415) can0 320#00000E591B505300
(1760621879.676546) can0 288#FCB7804E4E509900
(1760621879.677574) can0 271#0700000000000000
(1760621879.678595) can0 050#0000000000000000
(1760621879.678596) can0 1A0#0000581B0000000D
(1760621879.678598) can0 5A0#FF3C3900000000AD
(1760621879.678599) can0 320#00000E591B505300
(1760621879.679611) can0 280#490E480D0E001B0E
(1760621879.698483) can0 390#1000000044000000
(1760621879.699487) can0 320#00000E591B905200
(1760621879.718414) can0 320#00000E591B905200
(1760621879.738390) can0 51A#FDFFFFFFFFFFFF01
(1760621879.739402) can0 5D0#C01461002847
(1760621879.739404) can0 320#00000E591B905200
(1760621879.758392) can0 320#00000E591B905200
(1760621879.776670) can0 288#FCB7804E4E509900
(1760621879.777677) can0 271#0700000000000000
(1760621879.778691) can0 050#0000000000000000
(1760621879.778693) can0 1A0#0000581B0000000D
(1760621879.778695) can0 320#00000E591B905200
(1760621879.778696) can0 5A0#FFA83800000000AD
(1760621879.779699) can0 280#490E480D0E001B0E
(1760621879.798486) can0 390#1000000044000000
(1760621879.799497) can0 320#00000E591BD05100
(1760621879.818396) can0 320#00000E591BD05100
(1760621879.838338) can0 5D0#C01461002847
(1760621879.839359) can0 320#00000E591BD05100
(1760621879.839360) can0 420#83FFFF00B7326400
(1760621879.839362) can0 520#15C0000080F0E804
(1760621879.856293) can0 572#0700000000000000
(1760621879.858447) can0 320#00000E591BD05100
(1760621879.876776) can0 288#FCB7804E4E509900
(1760621879.877791) can0 271#0700000000000000
(1760621879.878805) can0 050#0000000000000000
(1760621879.878807) can0 1A0#0000581B0000000D
(1760621879.878809) can0 320#00000E591BD05100
(1760621879.878810) can0 280#490E480D0E001B0E
(1760621879.879814) can0 5A0#FF143800000000AD
(1760621879.898458) can0 390#1000000044000000
(1760621879.899464) can0 320#00000E591BD05000
(1760621879.918458) can0 320#00000E591BD05000
(1760621879.938368) can0 5D0#C01461002847
(1760621879.939376) can0 320#00000E591BD05000
(1760621879.958418) can0 320#00000E591BD05000
(1760621879.976926) can0 288#FCB7804E4E509900
(1760621879.977953) can0 271#0700000000000000
(1760621879.978965) can0 050#0000000000000000
(1760621879.978967) can0 1A0#0000581B0000000D
(1760621879.978969) can0 320#00000E591BD05000
(1760621879.978971) can0 280#490E480D0E001B0E
(1760621879.979984) can0 5A0#FF803700000000AD
(1760621879.998443) can0 390#1000000044000000
(1760621879.999451) can0 320#00000E591B105000
(1760621880.018404) can0 320#00000E591B105000
(1760621880.038378) can0 5D0#C01461002847
(1760621880.039406) can0 320#00000E591B105000
(1760621880.039407) can0 420#83FFFF00B7326400
(1760621880.039409) can0 520#0200000080F0E804
(1760621880.057572) can0 572#0700000000000000
(1760621880.058578) can0 320#00000E591B105000
(1760621880.077067) can0 288#FCB7804E4E509900
(1760621880.078080) can0 271#0700000000000000
(1760621880.079096) can0 050#0000000000000000
(1760621880.079098) can0 320#00000E591B105000
(1760621880.079100) can0 1A0#0000581B0000000D
(1760621880.079101) can0 5A0#FFEC3600000000AD
(1760621880.080114) can0 280#490E480D0E001B0E
(1760621880.098444) can0 390#1000000044000000
(1760621880.099458) can0 320#00000E591B105000
(1760621880.118410) can0 320#00000E591B504F00
(1760621880.138324) can0 5D0#C01461002847
(1760621880.139336) can0 320#00000E591B504F00
(1760621880.158413) can0 320#00000E591B504F00
(1760621880.177195) can0 288#FCB7804E4E509900
(1760621880.178210) can0 271#0700000000000000
(1760621880.179230) can0 050#0000000000000000
(1760621880.179232) can0 320#00000E591B504F00
(1760621880.179233) can0 1A0#0000581B0000000D
(1760621880.179235) can0 280#490E480D0E001B0E
(1760621880.180241) can0 5A0#FF583600000000AD
(1760621880.198429) can0 390#1000000044000000
(1760621880.199448) can0 320#00000E591B504F00
(1760621880.218423) can0 320#00000E591B504E00
(1760621880.238382) can0 51A#FEFFFFFFFFFFFF01
(1760621880.239416) can0 5D0#C01461002847
(1760621880.239417) can0 320#00000E591B504E00
(1760621880.239420) can0 420#83FFFF00B7326400
(1760621880.239422) can0 520#614C000080F0E804
(1760621880.240414) can0 5D2#0000000000000000
(1760621880.256638) can0 572#0700000000000000
(1760621880.258416) can0 320#00000E591B504E00
(1760621880.277310) can0 288#FCB7804E4E509900
(1760621880.278321) can0 271#0700000000000000
(1760621880.279335) can0 050#0000000000000000
(1760621880.279336) can0 320#00000E591B504E00
(1760621880.279338) can0 1A0#0000581B0000000D
(1760621880.279339) can0 280#490E480D0E001B0E
(1760621880.280342) can0 5A0#FFC43500000000AD
(1760621880.298431) can0 390#1000000044000000
(1760621880.299439) can0 320#00000E591B504E00
(1760621880.318419) can0 320#00000E591B904D00
(1760621880.338329) can0 5D0#C01461002847
(1760621880.339341) can0 320#00000E591B904D00
(1760621880.358377) can0 320#00000E591B904D00
(1760621880.377456) can0 288#FCB7804E4E509900
(1760621880.378475) can0 271#0700000000000000
(1760621880.378477) can0 320#00000E591B904D00
(1760621880.379482) can0 050#0000000000000000
(1760621880.379484) can0 1A0#0000581B0000000D
(1760621880.379485) can0 280#490E480D0E001B0E
(1760621880.380500) can0 5A0#FF303500000000AD
(1760621880.398388) can0 390#1000000044000000
(1760621880.399396) can0 320#00000E591B904D00
(1760621880.418373) can0 320#00000E591BD04C00
(1760621880.438300) can0 5D0#C01461002847
(1760621880.439303) can0 320#00000E591BD04C00
(1760621880.439305) can0 420#83FFFF00B7326400
(1760621880.439307) can0 520#8D87000080F0E804
(1760621880.456741) can0 572#0700000000000000
(1760621880.458348) can0 320#00000E591BD04C00
(1760621880.477595) can0 288#FCB7804E4E509900
(1760621880.478615) can0 271#0700000000000000
(1760621880.478617) can0 320#00000E591BD04C00
(1760621880.479626) can0 050#0000000000000000
(1760621880.479627) can0 1A0#0000581B0000000D
(1760621880.479628) can0 280#490E480D0E001B0E
(1760621880.480636) can0 5A0#FF9C3400000000AD
(1760621880.498404) can0 390#1000000044000000
(1760621880.499414) can0 320#00000E591BD04C00
(1760621880.518377) can0 320#00000E591BD04B00
(1760621880.538313) can0 5D0#C01461002847
(1760621880.539326) can0 320#00000E591BD04B00
(1760621880.558361) can0 320#00000E591BD04B00
(1760621880.577757) can0 288#FCB7804E4E509900
(1760621880.578773) can0 320#00000E591BD04B00
(1760621880.578774) can0 271#0700000000000000
(1760621880.579784) can0 050#0000000000000000
(1760621880.579786) can0 1A0#0000581B0000000D
(1760621880.579787) can0 280#490E480D0E001B0E
(1760621880.580808) can0 5A0#FF083400000000AD
(1760621880.598391) can0 390#1000000044000000
(1760621880.599411) can0 320#00000E591BD04B00
(1760621880.618372) can0 320#00000E591B104B00
(1760621880.638312) can0 5D0#C01461002847
(1760621880.639321) can0 320#00000E591B104B00
(1760621880.639322) can0 420#83FFFF00B7326400
(1760621880.639323) can0 520#15C0000080F0E804
(1760621880.656849) can0 572#0700000000000000
(1760621880.658380) can0 320#00000E591B104B00
(1760621880.677883) can0 288#FCB7804E4E509900
(1760621880.678938) can0 320#00000E591B104B00
(1760621880.678940) can0 271#0700000000000000
(1760621880.678941) can0 1A0#0000581B0000000D
(1760621880.679938) can0 050#0000000000000000
(1760621880.679939) can0 280#490E480D0E001B0E
(1760621880.680950) can0 5A0#FF743300000000AD
(1760621880.698402) can0 390#1000000044000000
(1760621880.699417) can0 320#00000E591B104B00
(1760621880.718392) can0 320#00000E591B504A00
(1760621880.738364) can0 51A#FFFFFFFFFFFFFF01
(1760621880.739377) can0 5D0#C01461002847
(1760621880.739379) can0 320#00000E591B504A00
(1760621880.758361) can0 320#00000E591B504A00
(1760621880.778032) can0 288#FCB7804E4E509900
(1760621880.779049) can0 320#00000E591B504A00
(1760621880.779050) can0 271#0700000000000000
(1760621880.780069) can0 050#0000000000000000
(1760621880.780070) can0 1A0#0000581B0000000D
(1760621880.780071) can0 280#490E480D0E001B0E
(1760621880.781075) can0 5A0#FFE03200000000AD
(1760621880.798375) can0 390#1000000044000000
(1760621880.799385) can0 320#00000E591B504A00
(1760621880.818366) can0 320#00000E591B504900
(1760621880.838324) can0 5D0#C01461002847
(1760621880.839322) can0 320#00000E591B504900
(1760621880.839324) can0 420#83FFFF00B7326400
(1760621880.839325) can0 520#0200000080F0E804
(1760621880.856982) can0 572#0700000000000000
(1760621880.858333) can0 320#00000E591B504900
(1760621880.878160) can0 288#FCB7804E4E509900
(1760621880.879199) can0 320#00000E591B504900
(1760621880.879201) can0 271#0700000000000000
(1760621880.879202) can0 1A0#0000581B0000000D
(1760621880.880198) can0 050#0000000000000000
(1760621880.880199) can0 280#490E480D0E001B0E
(1760621880.881211) can0 5A0#FF4C3200000000AD
(1760621880.898452) can0 390#1000000044000000
(1760621880.899454) can0 320#00000E591B504900
(1760621880.918345) can0 320#00000E591B904800
(1760621880.938272) can0 5D0#C01461002847
(1760621880.939287) can0 320#00000E591B904800
(1760621880.958370) can0 320#00000E591B904800
(1760621880.978276) can0 288#FCB7804E4E509900
(1760621880.979331) can0 320#00000E591B904800
(1760621880.979333) can0 271#0700000000000000
(1760621880.979334) can0 1A0#0000581B0000000D
(1760621880.980329) can0 050#0000000000000000
(1760621880.980331) can0 280#490E480D0E001B0E
(1760621880.981338) can0 5A0#FFB83100000000AD
(1760621880.998407) can0 390#1000000044000000
(1760621880.999415) can0 320#00000E591B904800
(1760621881.018383) can0 320#00000E591BD04700
(1760621881.038314) can0 5D0#C01461002847
(1760621881.039333) can0 320#00000E591BD04700
(1760621881.039335) can0 420#83FFFF00B7326400
(1760621881.039337) can0 520#614C000080F0E804
(1760621881.058216) can0 572#0700000000000000
(1760621881.059234) can0 320#00000E591BD04700
(1760621881.078365) can0 320#00000E591BD04700
(1760621881.079379) can0 288#FCB7804E4E509900
(1760621881.079381) can0 271#0700000000000000
(1760621881.080390) can0 050#0000000000000000
(1760621881.080392) can0 1A0#0000581B0000000D
(1760621881.081406) can0 280#490E480D0E001B0E
(1760621881.081408) can0 5A0#FF243100000000AD
(1760621881.098406) can0 390#1000000044000000
(1760621881.099415) can0 320#00000E591BD04700
(1760621881.118369) can0 320#00000E591BD04600
(1760621881.138271) can0 5D0#C01461002847
(1760621881.139280) can0 320#00000E591BD04600
(1760621881.158314) can0 320#00000E591BD04600
(1760621881.178307) can0 320#00000E591BD04600
(1760621881.179316) can0 288#FCB7804E4E509900
(1760621881.179318) can0 271#0700000000000000
(1760621881.180340) can0 1A0#0000581B0000000D
(1760621881.180342) can0 050#0000000000000000
(1760621881.181341) can0 280#490E480D0E001B0E
(1760621881.181342) can0 5A0#FF903000000000AD
(1760621881.198383) can0 390#1000000044000000
(1760621881.199394) can0 320#00000E591BD04600
(1760621881.218322) can0 320#00000E591B104600
(1760621881.238302) can0 51A#FCFFFFFFFFFFFF01
(1760621881.239311) can0 5D0#C01461002847
(1760621881.239313) can0 320#00000E591B104600
(1760621881.239314) can0 420#83FFFF00B7326400
(1760621881.239316) can0 520#8D87000080F0E804
(1760621881.240343) can0 5D2#0000000000000000
(1760621881.257227) can0 572#0700000000000000
(1760621881.258322) can0 320#00000E591B104600
(1760621881.278301) can0 320#00000E591B104600
(1760621881.279310) can0 288#FCB7804E4E509900
(1760621881.279311) can0 271#0700000000000000
(1760621881.280325) can0 1A0#0000581B0000000D
(1760621881.280327) can0 050#0000000000000000
(1760621881.281346) can0 280#490E480D0E001B0E
(1760621881.281347) can0 5A0#FFFC2F00000000AD
(1760621881.298374) can0 390#1000000044000000
(1760621881.299386) can0 320#00000E591B104600
(1760621881.318309) can0 320#00000E591B504500
(1760621881.338237) can0 5D0#C01461002847
(1760621881.339251) can0 320#00000E591B504500
(1760621881.358295) can0 320#00000E591B504500
(1760621881.378297) can0 320#00000E591B504500
(1760621881.379311) can0 288#FCB7804E4E509900
(1760621881.379312) can0 271#0700000000000000
(1760621881.380326) can0 1A0#0000581B0000000D
(1760621881.380327) can0 050#0000000000000000
(1760621881.381350) can0 280#490E480D0E001B0E
(1760621881.381351) can0 5A0#FF682F00000000AD
(1760621881.398402) can0 390#1000000044000000
(1760621881.399420) can0 320#00000E591B504500
(1760621881.418355) can0 320#00000E591B504400
(1760621881.438283) can0 5D0#C01461002847
(1760621881.439293) can0 320#00000E591B504400
(1760621881.439295) can0 420#83FFFF00B7326400
(1760621881.439297) can0 520#15C0000080F0E804
(1760621881.457355) can0 572#0700000000000000
(1760621881.458364) can0 320#00000E591B504400
(1760621881.478324) can0 320#00000E591B504400
(1760621881.479356) can0 288#FCB7804E4E509900
(1760621881.479357) can0 271#0700000000000000
(1760621881.480371) can0 1A0#0000581B0000000D
(1760621881.480372) can0 050#0000000000000000
(1760621881.481386) can0 280#490E480D0E001B0E
(1760621881.481387) can0 5A0#FFD42E00000000AD
(1760621881.498357) can0 390#1000000044000000
(1760621881.499366) can0 320#00000E591B504400
(1760621881.518360) can0 320#00000E591B904300
(1760621881.538290) can0 5D0#C01461002847
(1760621881.539299) can0 320#00000E591B904300
(1760621881.558296) can0 320#00000E591B904300
(1760621881.578308) can0 320#00000E591B904300
(1760621881.579323) can0 288#FCB7804E4E509900
(1760621881.580334) can0 271#0700000000000000
(1760621881.580335) can0 1A0#0000581B0000000D
(1760621881.581361) can0 050#0000000000000000
(1760621881.581363) can0 280#490E480D0E001B0E
(1760621881.581364) can0 5A0#FF402E00000000AD
(1760621881.598323) can0 390#1000000044000000
(1760621881.599334) can0 320#00000E591B904300
(1760621881.618308) can0 320#00000E591BD04200
(1760621881.638251) can0 5D0#C01461002847
(1760621881.639261) can0 320#00000E591BD04200
(1760621881.639263) can0 420#83FFFF00B7326400
(1760621881.639264) can0 520#0200000080F0E804
(1760621881.657448) can0 572#0700000000000000
(1760621881.658465) can0 320#00000E591BD04200
(1760621881.678285) can0 320#00000E591BD04200
(1760621881.679297) can0 288#FCB7804E4E509900
(1760621881.680310) can0 271#0700000000000000
(1760621881.680311) can0 1A0#0000581B0000000D
(1760621881.681322) can0 050#0000000000000000
(1760621881.681324) can0 280#490E480D0E001B0E
(1760621881.682341) can0 5A0#FFAC2D00000000AD
(1760621881.698343) can0 390#1000000044000000
(1760621881.699369) can0 320#00000E591BD04200
(1760621881.718320) can0 320#00000E591BD04100
(1760621881.738290) can0 51A#FDFFFFFFFFFFFF01
(1760621881.739303) can0 5D0#C01461002847
(1760621881.739305) can0 320#00000E591BD04100
(1760621881.758304) can0 320#00000E591BD04100
(1760621881.778283) can0 320#00000E591BD04100
(1760621881.779302) can0 288#FCB7804E4E509900
(1760621881.780334) can0 271#0700000000000000
(1760621881.781350) can0 1A0#0000581B0000000D
(1760621881.781351) can0 050#0000000000000000
(1760621881.781353) can0 280#490E480D0E001B0E
(1760621881.782373) can0 5A0#FF182D00000000AD
(1760621881.798327) can0 390#1000000044000000
(1760621881.799335) can0 320#00000E591BD04100
(1760621881.818339) can0 320#00000E591B104100
(1760621881.838253) can0 5D0#C01461002847
(1760621881.839262) can0 320#00000E591B104100
(1760621881.839263) can0 420#83FFFF00B7326400
(1760621881.839265) can0 520#614C000080F0E804
(1760621881.857627) can0 572#0700000000000000
(1760621881.858631) can0 320#00000E591B104100
(1760621881.878318) can0 320#00000E591B104100
(1760621881.879428) can0 288#FCB7804E4E509900
(1760621881.880445) can0 271#0700000000000000
(1760621881.881460) can0 1A0#0000581B0000000D
(1760621881.881462) can0 050#0000000000000000
(1760621881.881463) can0 280#490E480D0E001B0E
(1760621881.882467) can0 5A0#FF842C00000000AD
(1760621881.898335) can0 390#1000000044000000
(1760621881.899346) can0 320#00000E591B104100
(1760621881.918308) can0 320#00000E591B504000
(1760621881.938206) can0 5D0#C01461002847
(1760621881.939219) can0 320#00000E591B504000
(1760621881.958284) can0 320#00000E591B504000
(1760621881.978259) can0 320#00000E591B504000
(1760621881.979522) can0 288#FCB7804E4E509900
(1760621881.980533) can0 271#0700000000000000
(1760621881.981545) can0 1A0#0000581B0000000D
(1760621881.981547) can0 050#0000000000000000
(1760621881.981548) can0 280#490E480D0E001B0E
(1760621881.982561) can0 5A0#FFF02B00000000AD
(1760621881.998293) can0 390#1000000044000000
(1760621881.999310) can0 320#00000E591B504000
(1760621882.018282) can0 320#00000E591B503F00
(1760621882.038231) can0 5D0#C01461002847
(1760621882.039239) can0 320#00000E591B503F00
(1760621882.039241) can0 420#83FFFF00B7326400
(1760621882.039243) can0 520#8D87000080F0E804
(1760621882.058268) can0 320#00000E591B503F00
(1760621882.059278) can0 572#0700000000000000
(1760621882.078269) can0 320#00000E591B503F00
(1760621882.079638) can0 288#FCB7804E4E509900
(1760621882.080644) can0 271#0700000000000000
(1760621882.081656) can0 1A0#0000581B0000000D
(1760621882.081658) can0 050#0000000000000000
(1760621882.081659) can0 280#490E480D0E001B0E
(1760621882.082677) can0 5A0#FF5C2B00000000AD
(1760621882.098288) can0 390#1000000044000000
(1760621882.099299) can0 320#00000E591B503F00
(1760621882.118266) can0 320#00000E591B903E00
(1760621882.138193) can0 5D0#C01461002847
(1760621882.139209) can0 320#00000E591B903E00
(1760621882.158269) can0 320#00000E591B903E00
(1760621882.178272) can0 320#00000E591B903E00
(1760621882.179768) can0 288#FCB7804E4E509900
(1760621882.180784) can0 271#0700000000000000
(1760621882.181796) can0 1A0#0000581B0000000D
(1760621882.181797) can0 050#0000000000000000
(1760621882.181799) can0 280#490E480D0E001B0E
(1760621882.182806) can0 5A0#FFC82A00000000AD
(1760621882.198321) can0 390#1000000044000000
(1760621882.199334) can0 320#00000E591B903E00
(1760621882.218302) can0 320#00000E591BD03D00
(1760621882.238274) can0 51A#FEFFFFFFFFFFFF01
(1760621882.239279) can0 5D0#C01461002847
(1760621882.239282) can0 320#00000E591BD03D00
(1760621882.239283) can0 420#83FFFF00B7326400
(1760621882.239286) can0 520#15C0000080F0E804
(1760621882.240285) can0 5D2#0000000000000000
(1760621882.257812) can0 572#0700000000000000
(1760621882.258823) can0 320#00000E591BD03D00
(1760621882.278276) can0 320#00000E591BD03D00
(1760621882.279898) can0 288#FCB7804E4E509900
(1760621882.280898) can0 271#0700000000000000
(1760621882.281908) can0 1A0#0000581B0000000D
(1760621882.281909) can0 050#0000000000000000
(1760621882.281911) can0 280#490E480D0E001B0E
(1760621882.282918) can0 5A0#FF342A00000000AD
(1760621882.298348) can0 390#1000000044000000
(1760621882.299353) can0 320#00000E591BD03D00
(1760621882.318312) can0 320#00000E591BD03C00
(1760621882.338186) can0 5D0#C01461002847
(1760621882.339196) can0 320#00000E591BD03C00
(1760621882.358250) can0 320#00000E591BD03C00
(1760621882.378282) can0 320#00000E591BD03C00
(1760621882.380009) can0 288#FCB7804E4E509900
(1760621882.381029) can0 271#0700000000000000
(1760621882.382034) can0 1A0#0000581B0000000D
(1760621882.382035) can0 050#0000000000000000
(1760621882.382037) can0 280#490E480D0E001B0E
(1760621882.383049) can0 5A0#FFA02900000000AD
(1760621882.398319) can0 390#1000000044000000
(1760621882.399338) can0 320#00000E591BD03C00
(1760621882.418256) can0 320#00000E591B103C00
(1760621882.438205) can0 5D0#C01461002847
(1760621882.439218) can0 320#00000E591B103C00
(1760621882.439220) can0 420#83FFFF00B7326400
(1760621882.439222) can0 520#0200000080F0E804
(1760621882.457959) can0 572#0700000000000000
(1760621882.458977) can0 320#00000E591B103C00
(1760621882.478241) can0 320#00000E591B103C00
(1760621882.480120) can0 288#FCB7804E4E509900
(1760621882.481144) can0 271#0700000000000000
(1760621882.482160) can0 1A0#0000581B0000000D
(1760621882.482161) can0 050#0000000000000000
(1760621882.482162) can0 280#490E480D0E001B0E
(1760621882.483161) can0 5A0#FF0C2900000000AD
(1760621882.498333) can0 390#1000000044000000
(1760621882.499350) can0 320#00000E591B103C00
(1760621882.518254) can0 320#00000E591B503B00
(1760621882.538205) can0 5D0#C01461002847
(1760621882.539222) can0 320#00000E591B503B00
(1760621882.558257) can0 320#00000E591B503B00
(1760621882.578243) can0 320#00000E591B503B00
(1760621882.580261) can0 288#FCB7804E4E509900
(1760621882.581290) can0 271#0700000000000000
(1760621882.582291) can0 1A0#0000581B0000000D
(1760621882.582292) can0 050#0000000000000000
(1760621882.582293) can0 280#490E480D0E001B0E
(1760621882.583296) can0 5A0#FF782800000000AD
(1760621882.598334) can0 390#1000000044000000
(1760621882.599345) can0 320#00000E591B503B00
(1760621882.618300) can0 320#00000E591B503A00
(1760621882.638195) can0 5D0#C01461002847
(1760621882.639213) can0 320#00000E591B503A00
(1760621882.639215) can0 420#83FFFF00B7326400
(1760621882.639216) can0 520#614C000080F0E804
(1760621882.658079) can0 572#0700000000000000
(1760621882.659094) can0 320#00000E591B503A00
(1760621882.678263) can0 320#00000E591B503A00
(1760621882.680388) can0 288#FCB7804E4E509900
(1760621882.681400) can0 271#0700000000000000
(1760621882.682420) can0 1A0#0000581B0000000D
(1760621882.682422) can0 050#0000000000000000
(1760621882.682423) can0 280#490E480D0E001B0E
(1760621882.683422) can0 5A0#FFE42700000000AD
(1760621882.698299) can0 390#1000000044000000
(1760621882.699305) can0 320#00000E591B503A00
(1760621882.718249) can0 320#00000E591B903900
(1760621882.738207) can0 51A#FFFFFFFFFFFFFF01
(1760621882.739221) can0 5D0#C01461002847
(1760621882.739223) can0 320#00000E591B903900
(1760621882.758221) can0 320#00000E591B903900
(1760621882.778233) can0 320#00000E591B903900
(1760621882.780551) can0 288#FCB7804E4E509900
(1760621882.781557) can0 271#0700000000000000
(1760621882.782558) can0 1A0#0000581B0000000D
(1760621882.782559) can0 050#0000000000000000
(1760621882.782560) can0 280#490E480D0E001B0E
(1760621882.783576) can0 5A0#FF502700000000AD
(1760621882.798302) can0 390#1000000044000000
(1760621882.799303) can0 320#00000E591B903900
(1760621882.818222) can0 320#00000E591BD03800
(1760621882.838150) can0 5D0#C01461002847
(1760621882.839162) can0 320#00000E591BD03800
(1760621882.839165) can0 420#83FFFF00B7326400
(1760621882.839167) can0 520#8D87000080F0E804
(1760621882.858194) can0 572#0700000000000000
(1760621882.859208) can0 320#00000E591BD03800
(1760621882.878206) can0 320#00000E591BD03800
(1760621882.880736) can0 288#FCB7804E4E509900
(1760621882.881757) can0 271#0700000000000000
(1760621882.882759) can0 1A0#0000581B0000000D
(1760621882.882760) can0 050#0000000000000000
(1760621882.882762) can0 280#490E480D0E001B0E
(1760621882.883778) can0 5A0#FFBC2600000000AD
(1760621882.898233) can0 390#1000000044000000
(1760621882.899247) can0 320#00000E591BD03800
(1760621882.918231) can0 320#00000E591BD03700
(1760621882.938157) can0 5D0#C01461002847
(1760621882.939186) can0 320#00000E591BD03700
(1760621882.958208) can0 320#00000E591BD03700
(1760621882.978226) can0 320#00000E591BD03700
(1760621882.980919) can0 288#FCB7804E4E509900
(1760621882.981936) can0 271#0700000000000000
(1760621882.982937) can0 1A0#0000581B0000000D
(1760621882.982939) can0 050#0000000000000000
(1760621882.982940) can0 280#490E480D0E001B0E
(1760621882.983949) can0 5A0#FF282600000000AD
(1760621882.998292) can0 390#1000000044000000
(1760621882.999313) can0 320#00000E591BD03700
(1760621883.018239) can0 320#00000E591B103700
(1760621883.038198) can0 5D0#C01461002847
(1760621883.039213) can0 320#00000E591B103700
(1760621883.039215) can0 420#83FFFF00B7326400
(1760621883.039217) can0 520#15C0000080F0E804
(1760621883.058247) can0 320#00000E591B103700
(1760621883.059449) can0 572#0700000000000000
(1760621883.078220) can0 320#00000E591B103700
(1760621883.081129) can0 288#FCB7804E4E509900
(1760621883.082142) can0 271#0700000000000000
(1760621883.083154) can0 1A0#0000581B0000000D
(1760621883.083155) can0 050#0000000000000000
(1760621883.083156) can0 280#490E480D0E001B0E
(1760621883.083158) can0 5A0#FF942500000000AD
(1760621883.098254) can0 390#1000000044000000
(1760621883.099270) can0 320#00000E591B103700
(1760621883.118272) can0 320#00000E591B103600
(1760621883.138148) can0 5D0#C01461002847
(1760621883.139158) can0 320#00000E591B103600
(1760621883.158201) can0 320#00000E591B103600
(1760621883.178234) can0 320#00000E591B103600
(1760621883.181281) can0 288#FCB7804E4E509900
(1760621883.182294) can0 271#0700000000000000
(1760621883.183303) can0 1A0#0000581B0000000D
(1760621883.183304) can0 050#0000000000000000
(1760621883.183305) can0 280#490E480D0E001B0E
(1760621883.183307) can0 5A0#FF002500000000AD
(1760621883.198237) can0 390#1000000044000000
(1760621883.199252) can0 320#00000E591B103600
(1760621883.218220) can0 320#00000E591B503500
(1760621883.238225) can0 51A#FCFFFFFFFFFFFF01
(1760621883.239236) can0 5D0#C01461002847
(1760621883.239238) can0 320#00000E591B503500
(1760621883.239240) can0 420#83FFFF00B7326400
(1760621883.239243) can0 520#0200000080F0E804
(1760621883.240244) can0 5D2#0000000000000000
(1760621883.258184) can0 320#00000E591B503500
(1760621883.259204) can0 572#0700000000000000
(1760621883.278205) can0 320#00000E591B503500
(1760621883.281434) can0 288#FCB7804E4E509900
(1760621883.282452) can0 271#0700000000000000
(1760621883.283457) can0 1A0#0000581B0000000D
(1760621883.283459) can0 050#0000000000000000
(1760621883.283460) can0 280#490E480D0E001B0E
(1760621883.283461) can0 5A0#FF6C2400000000AD
(1760621883.298242) can0 390#1000000044000000
(1760621883.299255) can0 320#00000E591B503500
(1760621883.318205) can0 320#00000E591B903400
(1760621883.338129) can0 5D0#C01461002847
(1760621883.339139) can0 320#00000E591B903400
(1760621883.358212) can0 320#00000E591B903400
(1760621883.378209) can0 320#00000E591B903400
(1760621883.381598) can0 288#FCB7804E4E509900
(1760621883.382616) can0 271#0700000000000000
(1760621883.383627) can0 1A0#0000581B0000000D
(1760621883.383629) can0 050#0000000000000000
(1760621883.383630) can0 280#490E480D0E001B0E
(1760621883.383631) can0 5A0#FFD82300000000AD
(1760621883.398243) can0 390#1000000044000000
(1760621883.399259) can0 320#00000E591B903400
(1760621883.418232) can0 320#00000E591B903300
(1760621883.438140) can0 5D0#C01461002847
(1760621883.439158) can0 320#00000E591B903300
(1760621883.439160) can0 420#83FFFF00B7326400
(1760621883.439162) can0 520#614C000080F0E804
(1760621883.458215) can0 320#00000E591B903300
(1760621883.459215) can0 572#0700000000000000
(1760621883.478216) can0 320#00000E591B903300
(1760621883.481790) can0 288#FCB7804E4E509900
(1760621883.482798) can0 271#0700000000000000
(1760621883.483810) can0 1A0#0000581B0000000D
(1760621883.483812) can0 050#0000000000000000
(1760621883.483813) can0 280#490E480D0E001B0E
(1760621883.483815) can0 5A0#FF442300000000AD
(1760621883.498232) can0 390#1000000044000000
(1760621883.499243) can0 320#00000E591B903300
(1760621883.518187) can0 320#00000E591BD03200
(1760621883.538152) can0 5D0#C01461002847
(1760621883.539166) can0 320#00000E591BD03200
(1760621883.558166) can0 320#00000E591BD03200
(1760621883.578162) can0 320#00000E591BD03200
(1760621883.581969) can0 288#FCB7804E4E509900
(1760621883.582982) can0 271#0700000000000000
(1760621883.583993) can0 1A0#0000581B0000000D
(1760621883.583995) can0 050#0000000000000000
(1760621883.583996) can0 280#490E480D0E001B0E
(1760621883.583997) can0 5A0#FFB02200000000AD
(1760621883.598220) can0 390#1000000044000000
(1760621883.599220) can0 320#00000E591BD03200
(1760621883.618173) can0 320#00000E591B103200
(1760621883.638099) can0 5D0#C01461002847
(1760621883.639115) can0 320#00000E591B103200
(1760621883.639116) can0 420#83FFFF00B7326400
(1760621883.639117) can0 520#8D87000080F0E804
(1760621883.658157) can0 320#00000E591B103200
(1760621883.659170) can0 572#0700000000000000
(1760621883.678151) can0 320#00000E591B103200
(1760621883.682120) can0 288#FCB7804E4E509900
(1760621883.683132) can0 271#0700000000000000
(1760621883.684152) can0 1A0#0000581B0000000D
(1760621883.684153) can0 050#0000000000000000
(1760621883.684154) can0 280#490E480D0E001B0E
(1760621883.684155) can0 5A0#FF1C2200000000AD
(1760621883.698193) can0 390#1000000044000000
(1760621883.699226) can0 320#00000E591B103200
(1760621883.718170) can0 320#00000E591B103100
(1760621883.738170) can0 51A#FDFFFFFFFFFFFF01
(1760621883.739185) can0 5D0#C01461002847
(1760621883.739187) can0 320#00000E591B103100
(1760621883.758168) can0 320#00000E591B103100
(1760621883.778184) can0 320#00000E591B103100
(1760621883.782336) can0 271#0700000000000000
(1760621883.783355) can0 288#FCB7804E4E509900
(1760621883.784359) can0 1A0#0000581B0000000D
(1760621883.784360) can0 050#0000000000000000
(1760621883.784362) can0 280#490E480D0E001B0E
(1760621883.784363) can0 5A0#FF882100000000AD
(1760621883.798232) can0 390#1000000044000000
(1760621883.799242) can0 320#00000E591B103100
(1760621883.818232) can0 320#00000E591B503000
(1760621883.838117) can0 5D0#C01461002847
(1760621883.839127) can0 320#00000E591B503000
(1760621883.839130) can0 420#83FFFF00B7326400
(1760621883.839131) can0 520#15C0000080F0E804
(1760621883.858195) can0 320#00000E591B503000
(1760621883.859240) can0 572#0700000000000000
(1760621883.878194) can0 320#00000E591B503000
(1760621883.882461) can0 288#FCB7804E4E509900
(1760621883.883484) can0 271#0700000000000000
(1760621883.884486) can0 1A0#0000581B0000000D
(1760621883.884488) can0 280#490E480D0E001B0E
(1760621883.884489) can0 5A0#FFF42000000000AD
(1760621883.884490) can0 050#0000000000000000
(1760621883.898260) can0 390#1000000044000000
(1760621883.899278) can0 320#00000E591B503000
(1760621883.918183) can0 320#00000E591B902F00
(1760621883.938114) can0 5D0#C01461002847
(1760621883.939115) can0 320#00000E591B902F00
(1760621883.958154) can0 320#00000E591B902F00
(1760621883.978168) can0 320#00000E591B902F00
(1760621883.982656) can0 288#FCB7804E4E509900
(1760621883.983648) can0 271#0700000000000000
(1760621883.983650) can0 1A0#0000581B0000000D
(1760621883.984661) can0 280#490E480D0E001B0E
(1760621883.984662) can0 050#0000000000000000
(1760621883.984663) can0 5A0#FF602000000000AD
(1760621883.998190) can0 390#1000000044000000
(1760621883.999203) can0 320#00000E591B902F00
(1760621884.018157) can0 320#00000E591B902E00
(1760621884.038141) can0 5D0#C01461002847
(1760621884.039151) can0 320#00000E591B902E00
(1760621884.039153) can0 420#83FFFF00B7326400
(1760621884.039155) can0 520#0200000080F0E804
(1760621884.058159) can0 320#00000E591B902E00
(1760621884.059323) can0 572#0700000000000000
(1760621884.078146) can0 320#00000E591B902E00
(1760621884.082829) can0 271#0700000000000000
(1760621884.083842) can0 288#FCB7804E4E509900
(1760621884.083844) can0 1A0#0000581B0000000D
(1760621884.084873) can0 280#490E480D0E001B0E
(1760621884.084875) can0 5A0#FFCC1F00000000AD
(1760621884.084876) can0 050#0000000000000000
(1760621884.098210) can0 390#1000000044000000
(1760621884.099219) can0 320#00000E591B902E00
(1760621884.118167) can0 320#00000E591BD02D00
(1760621884.138081) can0 5D0#C01461002847
(1760621884.139094) can0 320#00000E591BD02D00
(1760621884.158173) can0 320#00000E591BD02D00
(1760621884.178155) can0 320#00000E591BD02D00
(1760621884.183027) can0 271#0700000000000000
(1760621884.184044) can0 288#FCB7804E4E509900
(1760621884.184046) can0 1A0#0000581B0000000D
(1760621884.185055) can0 280#490E480D0E001B0E
(1760621884.185057) can0 5A0#FF381F00000000AD
(1760621884.185058) can0 050#0000000000000000
(1760621884.198260) can0 390#1000000044000000
(1760621884.199252) can0 320#00000E591BD02D00
(1760621884.218188) can0 320#00000E591B102D00
(1760621884.238148) can0 51A#FEFFFFFFFFFFFF01
(1760621884.239159) can0 5D0#C01461002847
(1760621884.239161) can0 320#00000E591B102D00
(1760621884.239163) can0 420#83FFFF00B7326400
(1760621884.239165) can0 520#614C000080F0E804
(1760621884.240170) can0 5D2#0000000000000000
(1760621884.258151) can0 320#00000E591B102D00
(1760621884.259160) can0 572#0700000000000000
(1760621884.278134) can0 320#00000E591B102D00
(1760621884.283153) can0 288#FCB7804E4E509900
(1760621884.284164) can0 271#0700000000000000
(1760621884.284166) can0 1A0#0000581B0000000D
(1760621884.285184) can0 280#490E480D0E001B0E
(1760621884.285185) can0 5A0#FFA41E00000000AD
(1760621884.285186) can0 050#0000000000000000
(1760621884.298216) can0 390#1000000044000000
(1760621884.299229) can0 320#00000E591B102D00
(1760621884.318135) can0 320#00000E591B102C00
(1760621884.338069) can0 5D0#C01461002847
(1760621884.339074) can0 320#00000E591B102C00
(1760621884.358121) can0 320#00000E591B102C00
(1760621884.378110) can0 320#00000E591B102C00
(1760621884.383387) can0 288#FCB7804E4E509900
(1760621884.384389) can0 271#0700000000000000
(1760621884.384391) can0 1A0#0000581B0000000D
(1760621884.384392) can0 280#490E480D0E001B0E
(1760621884.385408) can0 5A0#FF101E00000000AD
(1760621884.385409) can0 050#0000000000000000
(1760621884.398213) can0 390#1000000044000000
(1760621884.399222) can0 320#00000E591B102C00
(1760621884.418142) can0 320#00000E591B502B00
(1760621884.438065) can0 5D0#C01461002847
(1760621884.439076) can0 320#00000E591B502B00
(1760621884.439079) can0 420#83FFFF00B7326400
(1760621884.439081) can0 520#8D87000080F0E804
(1760621884.458105) can0 320#00000E591B502B00
(1760621884.459115) can0 572#0700000000000000
(1760621884.478106) can0 320#00000E591B502B00
(1760621884.483486) can0 288#FCB7804E4E509900
(1760621884.484517) can0 271#0700000000000000
(1760621884.484519) can0 1A0#0000581B0000000D
(1760621884.484520) can0 280#490E480D0E001B0E
(1760621884.485519) can0 5A0#FF7C1D00000000AD
(1760621884.485520) can0 050#0000000000000000
(1760621884.498202) can0 390#1000000044000000
(1760621884.499210) can0 320#00000E591B502B00
(1760621884.518122) can0 320#00000E591B902A00
(1760621884.538111) can0 5D0#C01461002847
(1760621884.539123) can0 320#00000E591B902A00
(1760621884.558147) can0 320#00000E591B902A00
(1760621884.578148) can0 320#00000E591B902A00
(1760621884.583664) can0 288#FCB7804E4E509900
(1760621884.584679) can0 271#0700000000000000
(1760621884.584681) can0 1A0#0000581B0000000D
(1760621884.584682) can0 280#490E480D0E001B0E
(1760621884.585695) can0 5A0#FFE81C00000000AD
(1760621884.585696) can0 050#0000000000000000
(1760621884.598210) can0 390#1000000044000000
(1760621884.599213) can0 320#00000E591B902A00
(1760621884.618152) can0 320#00000E591B902900
(1760621884.638080) can0 5D0#C01461002847
(1760621884.639094) can0 320#00000E591B902900
(1760621884.639095) can0 420#83FFFF00B7326400
(1760621884.639097) can0 520#15C0000080F0E804
(1760621884.658152) can0 320#00000E591B902900
(1760621884.659161) can0 572#0700000000000000
(1760621884.678118) can0 320#00000E591B902900
(1760621884.683882) can0 271#0700000000000000
(1760621884.684904) can0 288#FCB7804E4E509900
(1760621884.684905) can0 1A0#0000581B0000000D
(1760621884.684906) can0 280#490E480D0E001B0E
(1760621884.684907) can0 5A0#FF541C00000000AD
(1760621884.685907) can0 050#0000000000000000
(1760621884.698158) can0 390#1000000044000000
(1760621884.699169) can0 320#00000E591B902900
(1760621884.718157) can0 320#00000E591BD02800
(1760621884.738109) can0 51A#FFFFFFFFFFFFFF01
(1760621884.739116) can0 5D0#C01461002847
(1760621884.739117) can0 320#00000E591BD02800
(1760621884.758116) can0 320#00000E591BD02800
(1760621884.778125) can0 320#00000E591BD02800
(1760621884.784068) can0 288#FCB7804E4E509900
(1760621884.785090) can0 271#0700000000000000
(1760621884.785092) can0 1A0#0000581B0000000D
