(1760621875.123888) can1 1A0#202F3ECB76A1CE52
(1760621875.149980) can1 351#00591B0010FFFF10
(1760621875.149982) can1 621#000080
(1760621875.189104) can1 353#0C480DB7000008
(1760621875.243923) can1 531#0101000000000000
(1760621875.245138) can1 393#0100000000000000
(1760621875.246396) can1 591#0000000000000000
(1760621875.247626) can1 392#0100000000000000
(1760621875.248877) can1 390#0100000000000000
(1760621875.250906) can1 351#00591B0010FFFF10
(1760621875.251925) can1 470#0201000000000020
(1760621875.252923) can1 271#0700000000000000
(1760621875.253931) can1 391#0100000000000000
(1760621875.254939) can1 551#00
(1760621875.255950) can1 60E#0A00
(1760621875.255951) can1 621#000080
(1760621875.256960) can1 623#0015385017102025
(1760621875.257967) can1 635#32640E
(1760621875.258976) can1 651#C01461002847
(1760621875.259980) can1 653#000200
(1760621875.289108) can1 353#0C480DB7000008
(1760621875.335427) can1 1A0#C55FFA9837228357
(1760621875.349932) can1 351#00591B0010FFFF10
(1760621875.350937) can1 621#000080
(1760621875.389126) can1 353#0C480DB7000008
(1760621875.429184) can1 627#0039393939282828
(1760621875.444023) can1 531#0101000000000000
(1760621875.445254) can1 393#0100000000000000
(1760621875.446520) can1 591#0000000000000000
(1760621875.447754) can1 392#0100000000000000
(1760621875.449962) can1 390#0100000000000000
(1760621875.450972) can1 351#00591B0010FFFF10
(1760621875.451977) can1 470#0201000000000020
(1760621875.452982) can1 271#0700000000000000
(1760621875.453993) can1 391#0100000000000000
(1760621875.455005) can1 551#00
(1760621875.456010) can1 621#000080
(1760621875.456012) can1 635#32640E
(1760621875.489083) can1 353#0C480DB7000008
(1760621875.540341) can1 1A0#1B1EE78B5E6F288D
(1760621875.547225) can1 100#057F24E64056AC72
(1760621875.549940) can1 351#00591B0010FFFF10
(1760621875.549941) can1 621#000080
(1760621875.551948) can1 408#080400000000
(1760621875.568943) can1 661#810112A000000000
(1760621875.589090) can1 353#0C480DB7000008
(1760621875.644136) can1 531#0101000000000000
(1760621875.645384) can1 393#0100000000000000
(1760621875.646632) can1 392#0100000000000000
(1760621875.647872) can1 591#0000000000000000
(1760621875.649945) can1 390#0100000000000000
(1760621875.650950) can1 351#00591B0010FFFF10
(1760621875.651950) can1 470#0201000000000020
(1760621875.652960) can1 271#0700000000000000
(1760621875.654020) can1 391#0100000000000000
(1760621875.655031) can1 551#00
(1760621875.656039) can1 621#000080
(1760621875.657046) can1 635#32640E
(1760621875.673889) can1 2B5#234328CA372281B2
(1760621875.689073) can1 353#0C480DB7000008
(1760621875.750115) can1 351#00591B0010FFFF10
(1760621875.750119) can1 621#000080
(1760621875.751127) can1 651#C01461002847
(1760621875.752131) can1 653#000200
(1760621875.776087) can1 3C0#325446324D434558
(1760621875.788601) can1 1A0#4527F1BD9B9A5E82
(1760621875.790616) can1 353#0C480DB7000008
(1760621875.807454) can1 100#2B8FB843711DFFF7
(1760621875.844274) can1 531#0101000000000000
(1760621875.845513) can1 393#0100000000000000
(1760621875.846753) can1 392#0100000000000000
(1760621875.848008) can1 591#0000000000000000
(1760621875.850042) can1 351#00591B0010FFFF10
(1760621875.851041) can1 390#0100000000000000
(1760621875.852062) can1 470#0201000000000020
(1760621875.853060) can1 271#0700000000000000
(1760621875.854145) can1 391#0100000000000000
(1760621875.855155) can1 551#00
(1760621875.856164) can1 621#000080
(1760621875.857175) can1 635#32640E
(1760621875.889046) can1 353#0C480DB7000008
(1760621875.929145) can1 627#0039393939282828
(1760621875.949909) can1 351#00591B0010FFFF10
(1760621875.950918) can1 621#000080
(1760621875.989069) can1 353#0C480DB7000008
(1760621876.024679) can1 1A0#0817BE495E2FAD3A
(1760621876.044396) can1 531#0101000000000000
(1760621876.045656) can1 393#0100000000000000
(1760621876.046873) can1 392#0100000000000000
(1760621876.048124) can1 591#0000000000000000
(1760621876.050137) can1 351#00591B0010FFFF10
(1760621876.051149) can1 390#0100000000000000
(1760621876.052154) can1 408#080400000000
(1760621876.053162) can1 470#0201000000000020
(1760621876.054169) can1 271#0700000000000000
(1760621876.055341) can1 391#0100000000000000
(1760621876.056341) can1 551#00
(1760621876.057350) can1 621#000080
(1760621876.058359) can1 635#32640E
(1760621876.069848) can1 661#810112A000000000
(1760621876.089050) can1 353#0C480DB7000008
(1760621876.149876) can1 351#00591B0010FFFF10
(1760621876.150886) can1 621#000080
(1760621876.159104) can1 2B5#5EC34F5E6B624968
(1760621876.189051) can1 353#0C480DB7000008
(1760621876.244541) can1 531#0101000000000000
(1760621876.245773) can1 393#0100000000000000
(1760621876.247009) can1 392#0100000000000000
(1760621876.249036) can1 591#0000000000000000
(1760621876.250042) can1 351#00591B0010FFFF10
(1760621876.251050) can1 390#0100000000000000
(1760621876.252063) can1 470#0201000000000020
(1760621876.254078) can1 271#0700000000000000
(1760621876.255104) can1 391#0100000000000000
(1760621876.255108) can1 551#00
(1760621876.256104) can1 60E#0A00
(1760621876.257132) can1 621#000080
(1760621876.258118) can1 623#0015385117102025
(1760621876.259124) can1 635#32640E
(1760621876.260135) can1 651#C01461002847
(1760621876.260138) can1 653#000200
(1760621876.270988) can1 1A0#C251D89614D9051B
(1760621876.282729) can1 100#794DC0457CE27273
(1760621876.289014) can1 353#0C480DB7000008
(1760621876.349858) can1 351#00591B0010FFFF10
(1760621876.350859) can1 621#000080
(1760621876.389040) can1 353#0C480DB7000008
(1760621876.429121) can1 627#0039393939282828
(1760621876.438238) can1 1A0#8000A771D402567E
(1760621876.444681) can1 531#0101000000000000
(1760621876.445895) can1 393#0100000000000000
(1760621876.447130) can1 392#0100000000000000
(1760621876.448403) can1 591#0000000000000000
(1760621876.450425) can1 351#00591B0010FFFF10
(1760621876.451452) can1 390#0100000000000000
(1760621876.452442) can1 470#0201000000000020
(1760621876.453460) can1 271#0700000000000000
(1760621876.454532) can1 391#0100000000000000
(1760621876.455541) can1 551#00
(1760621876.456546) can1 621#000080
(1760621876.457564) can1 635#32640E
(1760621876.489021) can1 353#0C480DB7000008
(1760621876.505533) can1 2B5#C4F04BAB6AAE33AF
(1760621876.549871) can1 351#00591B0010FFFF10
(1760621876.549873) can1 621#000080
(1760621876.551888) can1 408#080400000000
(1760621876.569119) can1 661#810112A000000000
(1760621876.589016) can1 353#0C480DB7000008
(1760621876.644789) can1 531#0101000000000000
(1760621876.646038) can1 393#0100000000000000
(1760621876.647282) can1 392#0100000000000000
(1760621876.648517) can1 591#0000000000000000
(1760621876.650535) can1 351#00591B0010FFFF10
(1760621876.651545) can1 390#0100000000000000
(1760621876.652557) can1 470#0201000000000020
(1760621876.653561) can1 271#0700000000000000
(1760621876.654682) can1 391#0100000000000000
(1760621876.655695) can1 551#00
(1760621876.656701) can1 621#000080
(1760621876.657708) can1 635#32640E
(1760621876.674843) can1 1A0#0A5151851BBC8808
(1760621876.689030) can1 353#0C480DB7000008
(1760621876.748596) can1 100#9B4C6C0462F0AAB4
(1760621876.750631) can1 351#00591B0010FFFF10
(1760621876.750634) can1 621#000080
(1760621876.751633) can1 651#C01461002847
(1760621876.752634) can1 653#000200
(1760621876.789024) can1 353#0C480DB7000008
(1760621876.817680) can1 2B5#4CD854D962EDA914
(1760621876.844892) can1 531#0101000000000000
(1760621876.846135) can1 393#0100000000000000
(1760621876.847393) can1 392#0100000000000000
(1760621876.849451) can1 591#0000000000000000
(1760621876.850465) can1 351#00591B0010FFFF10
(1760621876.851484) can1 470#0201000000000020
(1760621876.852488) can1 390#0100000000000000
(1760621876.853519) can1 271#0700000000000000
(1760621876.854768) can1 391#0100000000000000
(1760621876.855777) can1 551#00
(1760621876.856786) can1 621#000080
(1760621876.857793) can1 635#32640E
(1760621876.889028) can1 353#0C480DB7000008
(1760621876.891039) can1 1A0#A02D63ED776F278C
(1760621876.929139) can1 627#0039393939282828
(1760621876.949827) can1 351#00591B0010FFFF10
(1760621876.950837) can1 621#000080
(1760621876.989020) can1 353#0C480DB7000008
(1760621877.040532) can1 1A0#2537BEAF445957F5
(1760621877.045021) can1 531#0101000000000000
(1760621877.046286) can1 393#0100000000000000
(1760621877.047520) can1 392#0100000000000000
(1760621877.048748) can1 591#0000000000000000
(1760621877.050773) can1 351#00591B0010FFFF10
(1760621877.051783) can1 390#0100000000000000
(1760621877.052792) can1 408#080400000000
(1760621877.053796) can1 470#0201000000000020
(1760621877.054803) can1 271#0700000000000000
(1760621877.055957) can1 391#0100000000000000
(1760621877.056966) can1 551#00
(1760621877.057975) can1 621#000080
(1760621877.058979) can1 635#32640E
(1760621877.059990) can1 3C0#4B31365941325447
(1760621877.069212) can1 661#810112A000000000
(1760621877.088986) can1 353#0C480DB7000008
(1760621877.149803) can1 351#00591B0010FFFF10
(1760621877.150815) can1 621#000080
(1760621877.151902) can1 1A0#D84EEFC98E613D32
(1760621877.188995) can1 353#0C480DB7000008
(1760621877.245156) can1 531#0101000000000000
(1760621877.246407) can1 393#0100000000000000
(1760621877.247631) can1 392#0100000000000000
(1760621877.249658) can1 591#0000000000000000
(1760621877.250657) can1 351#00591B0010FFFF10
(1760621877.251666) can1 470#0201000000000020
(1760621877.252674) can1 390#0100000000000000
(1760621877.254685) can1 271#0700000000000000
(1760621877.255698) can1 391#0100000000000000
(1760621877.255701) can1 551#00
(1760621877.256704) can1 60E#0A00
(1760621877.257711) can1 621#000080
(1760621877.258715) can1 623#0015385217102025
(1760621877.259725) can1 635#32640E
(1760621877.260733) can1 1A0#8B6182B9F8E052E0
(1760621877.261740) can1 651#C01461002847
(1760621877.262746) can1 653#000200
(1760621877.288965) can1 353#0C480DB7000008
(1760621877.325190) can1 100#32D263EAF65CEB25
(1760621877.332572) can1 1A0#48417EC6E9ED33DE
(1760621877.349802) can1 351#00591B0010FFFF10
(1760621877.350810) can1 621#000080
(1760621877.388951) can1 353#0C480DB7000008
(1760621877.429043) can1 627#0039393939282828
(1760621877.445297) can1 531#0101000000000000
(1760621877.446519) can1 393#0100000000000000
(1760621877.447762) can1 392#0100000000000000
(1760621877.449814) can1 591#0000000000000000
(1760621877.450826) can1 351#00591B0010FFFF10
(1760621877.451836) can1 390#0100000000000000
(1760621877.452840) can1 470#0201000000000020
(1760621877.453918) can1 271#0700000000000000
(1760621877.455167) can1 391#0100000000000000
(1760621877.456167) can1 551#00
(1760621877.457168) can1 621#000080
(1760621877.458172) can1 635#32640E
(1760621877.488963) can1 353#0C480DB7000008
(1760621877.549808) can1 351#00591B0010FFFF10
(1760621877.550815) can1 621#000080
(1760621877.551823) can1 408#080400000000
(1760621877.570206) can1 661#810112A000000000
(1760621877.588964) can1 353#0C480DB7000008
(1760621877.605263) can1 1A0#7A59D8A3A8EDC2ED
(1760621877.611884) can1 2B5#F90546359DE1DE6F
(1760621877.645427) can1 531#0101000000000000
(1760621877.646651) can1 393#0100000000000000
(1760621877.647888) can1 392#0100000000000000
(1760621877.649908) can1 351#00591B0010FFFF10
(1760621877.649910) can1 551#00
(1760621877.650931) can1 591#0000000000000000
(1760621877.652149) can1 470#0201000000000020
(1760621877.653401) can1 390#0100000000000000
(1760621877.654634) can1 271#0700000000000000
(1760621877.655878) can1 391#0100000000000000
(1760621877.656890) can1 621#000080
(1760621877.657895) can1 635#32640E
(1760621877.689103) can1 353#0C480DB7000008
(1760621877.697807) can1 1A0#815AAA0B7DEDF947
(1760621877.750006) can1 351#00591B0010FFFF10
(1760621877.750011) can1 621#000080
(1760621877.751016) can1 651#C01461002847
(1760621877.752023) can1 653#000200
(1760621877.788936) can1 353#0C480DB7000008
(1760621877.807449) can1 1A0#DA3796CD2E365085
(1760621877.845528) can1 531#0101000000000000
(1760621877.846765) can1 393#0100000000000000
(1760621877.847999) can1 392#0100000000000000
(1760621877.850020) can1 351#00591B0010FFFF10
(1760621877.850022) can1 551#00
(1760621877.851027) can1 591#0000000000000000
(1760621877.852280) can1 390#0100000000000000
(1760621877.853525) can1 470#0201000000000020
(1760621877.854761) can1 271#0700000000000000
(1760621877.855990) can1 391#0100000000000000
(1760621877.857000) can1 621#000080
(1760621877.858007) can1 635#32640E
(1760621877.888923) can1 353#0C480DB7000008
(1760621877.892873) can1 1A0#ED0DA80FBD733CE8
(1760621877.901206) can1 100#0A336A10B78F4848
(1760621877.929030) can1 627#0039393939282828
(1760621877.949758) can1 351#00591B0010FFFF10
(1760621877.950764) can1 621#000080
(1760621877.988925) can1 353#0C480DB7000008
(1760621877.997447) can1 3C0#32543344544A364D
(1760621878.045638) can1 531#0101000000000000
(1760621878.046873) can1 393#0100000000000000
(1760621878.048892) can1 392#0100000000000000
(1760621878.049905) can1 351#00591B0010FFFF10
(1760621878.049906) can1 551#00
(1760621878.051925) can1 408#080400000000
(1760621878.052949) can1 591#0000000000000000
(1760621878.053949) can1 390#0100000000000000
(1760621878.054958) can1 470#0201000000000020
(1760621878.055971) can1 271#0700000000000000
(1760621878.057164) can1 391#0100000000000000
(1760621878.058172) can1 621#000080
(1760621878.059179) can1 635#32640E
(1760621878.069469) can1 661#810112A000000000
(1760621878.088925) can1 353#0C480DB7000008
(1760621878.149745) can1 351#00591B0010FFFF10
(1760621878.150756) can1 621#000080
(1760621878.152773) can1 1A0#A058EE39D3074876
(1760621878.163417) can1 100#2E418C3EE9CACA9C
(1760621878.188904) can1 353#0C480DB7000008
(1760621878.245773) can1 531#0101000000000000
(1760621878.247014) can1 393#0100000000000000
(1760621878.248243) can1 392#0100000000000000
(1760621878.250260) can1 351#00591B0010FFFF10
(1760621878.251266) can1 591#0000000000000000
(1760621878.252283) can1 470#0201000000000020
(1760621878.253289) can1 390#0100000000000000
(1760621878.255303) can1 271#0700000000000000
(1760621878.256311) can1 391#0100000000000000
(1760621878.256313) can1 551#00
(1760621878.257342) can1 60E#0A00
(1760621878.258348) can1 621#000080
(1760621878.259343) can1 623#0015385317102025
(1760621878.260350) can1 635#32640E
(1760621878.261358) can1 651#C01461002847
(1760621878.261360) can1 653#000200
(1760621878.288941) can1 353#0C480DB7000008
(1760621878.332043) can1 2B5#33921F56C0565B8C
(1760621878.349765) can1 351#00591B0010FFFF10
(1760621878.350770) can1 621#000080
(1760621878.388934) can1 353#0C480DB7000008
(1760621878.396093) can1 1A0#5D211A7F8C27DFCC
(1760621878.429045) can1 627#0039393939282828
(1760621878.446063) can1 531#0101000000000000
(1760621878.447158) can1 393#0100000000000000
(1760621878.448394) can1 392#0100000000000000
(1760621878.450415) can1 351#00591B0010FFFF10
(1760621878.450419) can1 551#00
(1760621878.451424) can1 591#0000000000000000
(1760621878.452667) can1 470#0201000000000020
(1760621878.453900) can1 390#0100000000000000
(1760621878.455134) can1 271#0700000000000000
(1760621878.456382) can1 391#0100000000000000
(1760621878.457389) can1 621#000080
(1760621878.458400) can1 635#32640E
(1760621878.488945) can1 353#0C480DB7000008
(1760621878.549746) can1 351#00591B0010FFFF10
(1760621878.549748) can1 621#000080
(1760621878.551765) can1 408#080400000000
(1760621878.569604) can1 661#810112A000000000
(1760621878.588882) can1 353#0C480DB7000008
(1760621878.592202) can1 1A0#070107A13DB41713
(1760621878.646042) can1 531#0101000000000000
(1760621878.647283) can1 393#0100000000000000
(1760621878.648522) can1 392#0100000000000000
(1760621878.650545) can1 351#00591B0010FFFF10
(1760621878.650549) can1 551#00
(1760621878.651557) can1 591#0000000000000000
(1760621878.652785) can1 470#0201000000000020
(1760621878.654037) can1 390#0100000000000000
(1760621878.655257) can1 271#0700000000000000
(1760621878.656532) can1 391#0100000000000000
(1760621878.658563) can1 100#44CA812671F77150
(1760621878.658564) can1 621#000080
(1760621878.659577) can1 635#32640E
(1760621878.688911) can1 353#0C480DB7000008
(1760621878.691535) can1 1A0#A01CB28648EDD949
(1760621878.741917) can1 1A0#DE27358FE7482E28
(1760621878.749939) can1 351#00591B0010FFFF10
(1760621878.749942) can1 621#000080
(1760621878.750944) can1 651#C01461002847
(1760621878.751952) can1 653#000200
(1760621878.788896) can1 353#0C480DB7000008
(1760621878.846192) can1 531#0101000000000000
(1760621878.847422) can1 393#0100000000000000
(1760621878.848670) can1 392#0100000000000000
(1760621878.850696) can1 351#00591B0010FFFF10
(1760621878.850699) can1 551#00
(1760621878.851697) can1 591#0000000000000000
(1760621878.852953) can1 390#0100000000000000
(1760621878.854180) can1 470#0201000000000020
(1760621878.855408) can1 271#0700000000000000
(1760621878.856656) can1 391#0100000000000000
(1760621878.857663) can1 621#000080
(1760621878.858668) can1 635#32640E
(1760621878.880938) can1 2B5#1EBC4738D96BA3EC
(1760621878.888884) can1 353#0C480DB7000008
(1760621878.928975) can1 627#0039393939282828
(1760621878.949749) can1 351#00591B0010FFFF10
(1760621878.949751) can1 621#000080
(1760621878.988858) can1 353#0C480DB7000008
(1760621879.021441) can1 1A0#5B4CCB0990B68935
(1760621879.046294) can1 531#0101000000000000
(1760621879.047524) can1 393#0100000000000000
(1760621879.049734) can1 392#0100000000000000
(1760621879.050757) can1 351#00591B0010FFFF10
(1760621879.050760) can1 551#00
(1760621879.051759) can1 408#080400000000
(1760621879.052891) can1 591#0000000000000000
(1760621879.054127) can1 390#0100000000000000
(1760621879.055355) can1 470#0201000000000020
(1760621879.056590) can1 271#0700000000000000
(1760621879.057828) can1 391#0100000000000000
(1760621879.058835) can1 621#000080
(1760621879.059846) can1 635#32640E
(1760621879.069712) can1 661#810112A000000000
(1760621879.077359) can1 100#50B40CC65AF06493
(1760621879.088901) can1 353#0C480DB7000008
(1760621879.147180) can1 1A0#A90DE62FB4BC64FD
(1760621879.149715) can1 351#00591B0010FFFF10
(1760621879.150723) can1 621#000080
(1760621879.188869) can1 353#0C480DB7000008
(1760621879.242287) can1 1A0#5F0C5AB0D143A55C
(1760621879.246398) can1 531#0101000000000000
(1760621879.247653) can1 393#0100000000000000
(1760621879.249701) can1 392#0100000000000000
(1760621879.250707) can1 351#00591B0010FFFF10
(1760621879.251716) can1 591#0000000000000000
(1760621879.252721) can1 390#0100000000000000
(1760621879.254741) can1 470#0201000000000020
(1760621879.255763) can1 271#0700000000000000
(1760621879.256763) can1 391#0100000000000000
(1760621879.257770) can1 551#00
(1760621879.257772) can1 60E#0A00
(1760621879.258778) can1 621#000080
(1760621879.259794) can1 623#0015385417102025
(1760621879.260802) can1 635#32640E
(1760621879.261816) can1 651#C01461002847
(1760621879.262828) can1 653#000200
(1760621879.288866) can1 353#0C480DB7000008
(1760621879.295089) can1 2B5#636B3BB662A8DCB1
(1760621879.335646) can1 100#FA3542C331B2C058
(1760621879.349705) can1 351#00591B0010FFFF10
(1760621879.349706) can1 621#000080
(1760621879.376837) can1 3C0#574652594A393941
(1760621879.388828) can1 353#0C480DB7000008
(1760621879.428914) can1 627#0039393939282828
(1760621879.446525) can1 531#0101000000000000
(1760621879.447751) can1 393#0100000000000000
(1760621879.449777) can1 351#00591B0010FFFF10
(1760621879.450778) can1 392#0100000000000000
(1760621879.450783) can1 551#00
(1760621879.452027) can1 591#0000000000000000
(1760621879.453276) can1 390#0100000000000000
(1760621879.454504) can1 470#0201000000000020
(1760621879.455733) can1 271#0700000000000000
(1760621879.456984) can1 391#0100000000000000
(1760621879.457990) can1 621#000080
(1760621879.458996) can1 635#32640E
(1760621879.477372) can1 1A0#D70DA8427EEC8879
(1760621879.488842) can1 353#0C480DB7000008
(1760621879.549690) can1 351#00591B0010FFFF10
(1760621879.550699) can1 100#D82391A87FA6C074
(1760621879.551707) can1 408#080400000000
(1760621879.552718) can1 621#000080
(1760621879.569822) can1 661#810112A000000000
(1760621879.588833) can1 353#0C480DB7000008
(1760621879.646689) can1 531#0101000000000000
(1760621879.647911) can1 393#0100000000000000
(1760621879.649912) can1 351#00591B0010FFFF10
(1760621879.650926) can1 392#0100000000000000
(1760621879.650929) can1 551#00
(1760621879.652169) can1 591#0000000000000000
(1760621879.653464) can1 390#0100000000000000
(1760621879.654641) can1 470#0201000000000020
(1760621879.655813) can1 1A0#0105746E8D8FB571
(1760621879.657052) can1 271#0700000000000000
(1760621879.658292) can1 391#0100000000000000
(1760621879.659300) can1 621#000080
(1760621879.660311) can1 635#32640E
(1760621879.688833) can1 353#0D480DB7000009
(1760621879.690848) can1 2B5#24AD1460B1B7312B
(1760621879.708834) can1 353#0C480DB7000008
(1760621879.749876) can1 351#00591B0010FFFF10
(1760621879.749880) can1 621#000080
(1760621879.750883) can1 651#C01461002847
(1760621879.751888) can1 653#000200
(1760621879.778636) can1 1A0#9006A658E193509B
(1760621879.808809) can1 353#0C480DB7000008
(1760621879.846752) can1 531#0101000000000000
(1760621879.847984) can1 393#0100000000000000
(1760621879.850001) can1 351#00591B0010FFFF10
(1760621879.851012) can1 392#0100000000000000
(1760621879.851016) can1 551#00
(1760621879.852276) can1 591#0000000000000000
(1760621879.853506) can1 390#0100000000000000
(1760621879.854736) can1 470#0201000000000020
(1760621879.855981) can1 271#0700000000000000
(1760621879.857209) can1 391#0100000000000000
(1760621879.858218) can1 621#000080
(1760621879.859222) can1 635#32640E
(1760621879.908828) can1 353#0C480DB7000008
(1760621879.929403) can1 627#0039393939282828
(1760621879.949697) can1 351#00591B0010FFFF10
(1760621879.950702) can1 621#000080
(1760621879.953948) can1 1A0#662520FA577286BD
(1760621879.988812) can1 353#0D480DB7000009
(1760621880.008851) can1 353#0C480DB7000008
(1760621880.046931) can1 531#0101000000000000
(1760621880.048157) can1 393#0100000000000000
(1760621880.050182) can1 351#00591B0010FFFF10
(1760621880.051194) can1 392#0100000000000000
(1760621880.052197) can1 408#080400000000
(1760621880.053201) can1 551#00
(1760621880.054214) can1 591#0000000000000000
(1760621880.055221) can1 390#0100000000000000
(1760621880.056230) can1 470#0201000000000020
(1760621880.057239) can1 271#0700000000000000
(1760621880.058463) can1 391#0100000000000000
(1760621880.059472) can1 621#000080
(1760621880.060479) can1 635#32640E
(1760621880.069935) can1 661#810112A000000000
(1760621880.089222) can1 1A0#6F503A597B7DB7F4
(1760621880.108812) can1 353#0C480DB7000008
(1760621880.141337) can1 100#4131236EF18C3DC1
(1760621880.149650) can1 351#00591B0010FFFF10
(1760621880.149651) can1 621#000080
(1760621880.208777) can1 353#0C480DB7000008
(1760621880.247067) can1 531#0101000000000000
(1760621880.248299) can1 393#0100000000000000
(1760621880.250318) can1 351#00591B0010FFFF10
(1760621880.251326) can1 392#0100000000000000
(1760621880.251330) can1 551#00
(1760621880.253342) can1 591#0000000000000000
(1760621880.254354) can1 390#0100000000000000
(1760621880.255359) can1 470#0201000000000020
(1760621880.256367) can1 271#0700000000000000
(1760621880.257519) can1 391#0100000000000000
(1760621880.258529) can1 60E#0A00
(1760621880.259532) can1 621#000080
(1760621880.260539) can1 623#0015385517102025
(1760621880.261547) can1 635#32640E
(1760621880.262568) can1 651#C01461002847
(1760621880.262570) can1 653#000200
(1760621880.289256) can1 2B5#5D3D1D86AB5CC82F
(1760621880.308792) can1 353#0C480DB7000008
(1760621880.349609) can1 351#00591B0010FFFF10
(1760621880.350618) can1 621#000080
(1760621880.388650) can1 1A0#2E122EBCB8346386
(1760621880.408792) can1 353#0C480DB7000008
(1760621880.418022) can1 3C0#4433364C56333836
(1760621880.429167) can1 627#0039393939282828
(1760621880.447176) can1 531#0101000000000000
(1760621880.448419) can1 393#0100000000000000
(1760621880.450454) can1 351#00591B0010FFFF10
(1760621880.451457) can1 392#0100000000000000
(1760621880.451459) can1 551#00
(1760621880.452703) can1 591#0000000000000000
(1760621880.453953) can1 390#0100000000000000
(1760621880.455203) can1 470#0201000000000020
(1760621880.456403) can1 271#0700000000000000
(1760621880.457656) can1 391#0100000000000000
(1760621880.458664) can1 621#000080
(1760621880.459676) can1 635#32640E
(1760621880.508787) can1 353#0C480DB7000008
(1760621880.549609) can1 351#00591B0010FFFF10
(1760621880.549611) can1 621#000080
(1760621880.551624) can1 408#080400000000
(1760621880.570046) can1 661#810112A000000000
(1760621880.608776) can1 353#0C480DB7000008
(1760621880.619225) can1 1A0#DA116B43B86FA1F0
(1760621880.647300) can1 531#0101000000000000
(1760621880.648538) can1 393#0100000000000000
(1760621880.650558) can1 351#00591B0010FFFF10
(1760621880.651567) can1 392#0100000000000000
(1760621880.651569) can1 551#00
(1760621880.652810) can1 591#0000000000000000
(1760621880.654060) can1 390#0100000000000000
(1760621880.655293) can1 470#0201000000000020
(1760621880.656522) can1 271#0700000000000000
(1760621880.657763) can1 391#0100000000000000
(1760621880.658772) can1 621#000080
(1760621880.659781) can1 635#32640E
(1760621880.666426) can1 100#CDD88844038434E0
(1760621880.708783) can1 353#0C480DB7000008
(1760621880.717349) can1 1A0#535535B73D4AD800
(1760621880.749846) can1 351#00591B0010FFFF10
(1760621880.749849) can1 621#000080
(1760621880.750852) can1 651#C01461002847
(1760621880.751856) can1 653#000200
(1760621880.784813) can1 2B5#9D9338DEA22890E1
(1760621880.808790) can1 353#0C480DB7000008
(1760621880.847430) can1 531#0101000000000000
(1760621880.849637) can1 393#0100000000000000
(1760621880.850651) can1 351#00591B0010FFFF10
(1760621880.851677) can1 392#0100000000000000
(1760621880.851679) can1 551#00
(1760621880.852927) can1 591#0000000000000000
(1760621880.854224) can1 390#0100000000000000
(1760621880.855412) can1 470#0201000000000020
(1760621880.856645) can1 271#0700000000000000
(1760621880.857886) can1 391#0100000000000000
(1760621880.858895) can1 621#000080
(1760621880.859905) can1 635#32640E
(1760621880.907868) can1 1A0#C813626BBD47C005
(1760621880.909887) can1 353#0C480DB7000008
(1760621880.928855) can1 627#0039393939282828
(1760621880.949608) can1 351#00591B0010FFFF10
(1760621880.949609) can1 621#000080
(1760621881.001178) can1 1A0#2D119BA9B7648B43
(1760621881.007517) can1 100#0740FEC4F5C2348D
(1760621881.008734) can1 353#0C480DB7000008
(1760621881.047578) can1 531#0101000000000000
(1760621881.049611) can1 393#0100000000000000
(1760621881.050616) can1 351#00591B0010FFFF10
(1760621881.051621) can1 392#0100000000000000
(1760621881.052628) can1 408#080400000000
(1760621881.053637) can1 551#00
(1760621881.054648) can1 591#0000000000000000
(1760621881.055656) can1 390#0100000000000000
(1760621881.056665) can1 470#0201000000000020
(1760621881.057869) can1 271#0700000000000000
(1760621881.059132) can1 391#0100000000000000
(1760621881.060145) can1 621#000080
(1760621881.061151) can1 635#32640E
(1760621881.071066) can1 661#810112A000000000
(1760621881.108744) can1 353#0C480DB7000008
(1760621881.149595) can1 351#00591B0010FFFF10
(1760621881.149597) can1 621#000080
(1760621881.208764) can1 353#0C480DB7000008
(1760621881.243998) can1 1A0#D143E643C0AEC327
(1760621881.247686) can1 531#0101000000000000
(1760621881.249704) can1 393#0100000000000000
(1760621881.250712) can1 351#00591B0010FFFF10
(1760621881.251721) can1 392#0100000000000000
(1760621881.252727) can1 551#00
(1760621881.253749) can1 591#0000000000000000
(1760621881.254749) can1 390#0100000000000000
(1760621881.255751) can1 470#0201000000000020
(1760621881.256894) can1 271#0700000000000000
(1760621881.258917) can1 391#0100000000000000
(1760621881.258920) can1 60E#0A00
(1760621881.259926) can1 621#000080
(1760621881.260936) can1 623#0015385617102025
(1760621881.261944) can1 635#32640E
(1760621881.262951) can1 651#C01461002847
(1760621881.263958) can1 653#000200
(1760621881.309208) can1 353#0C480DB7000008
(1760621881.330783) can1 100#97469FA9F881556E
(1760621881.349561) can1 351#00591B0010FFFF10
(1760621881.349563) can1 621#000080
(1760621881.408734) can1 353#0C480DB7000008
(1760621881.428857) can1 627#0039393939282828
(1760621881.442157) can1 2B5#F201263AB5F34299
(1760621881.447806) can1 531#0101000000000000
(1760621881.449824) can1 351#00591B0010FFFF10
(1760621881.450832) can1 393#0100000000000000
(1760621881.451840) can1 392#0100000000000000
(1760621881.452845) can1 551#00
(1760621881.453851) can1 591#0000000000000000
(1760621881.454857) can1 390#0100000000000000
(1760621881.455863) can1 470#0201000000000020
(1760621881.457017) can1 271#0700000000000000
(1760621881.458268) can1 391#0100000000000000
(1760621881.459273) can1 621#000080
(1760621881.460285) can1 635#32640E
(1760621881.508736) can1 353#0C480DB7000008
(1760621881.524145) can1 1A0#564CB72AC91E3404
(1760621881.549789) can1 351#00591B0010FFFF10
(1760621881.549791) can1 621#000080
(1760621881.550798) can1 408#080400000000
(1760621881.570331) can1 661#810112A000000000
(1760621881.608748) can1 353#0C480DB7000008
(1760621881.614792) can1 100#F4362C942C87A7EB
(1760621881.647903) can1 531#0101000000000000
(1760621881.649921) can1 351#00591B0010FFFF10
(1760621881.650931) can1 393#0100000000000000
(1760621881.651944) can1 392#0100000000000000
(1760621881.652951) can1 551#00
(1760621881.653962) can1 591#0000000000000000
(1760621881.654976) can1 390#0100000000000000
(1760621881.655981) can1 470#0201000000000020
(1760621881.657116) can1 271#0700000000000000
(1760621881.658366) can1 391#0100000000000000
(1760621881.659395) can1 621#000080
(1760621881.660394) can1 635#32640E
(1760621881.708691) can1 353#0C480DB7000008
(1760621881.718850) can1 1A0#1C2BFF06797654CB
(1760621881.746992) can1 3C0#574741354E4C3943
(1760621881.749773) can1 351#00591B0010FFFF10
(1760621881.749776) can1 621#000080
(1760621881.750773) can1 651#C01461002847
(1760621881.751775) can1 653#000200
(1760621881.808692) can1 353#0C480DB7000008
(1760621881.848028) can1 531#0101000000000000
(1760621881.850040) can1 351#00591B0010FFFF10
(1760621881.851046) can1 393#0100000000000000
(1760621881.852057) can1 392#0100000000000000
(1760621881.853063) can1 551#00
(1760621881.854069) can1 591#0000000000000000
(1760621881.855077) can1 470#0201000000000020
(1760621881.856090) can1 390#0100000000000000
(1760621881.857236) can1 271#0700000000000000
(1760621881.858484) can1 391#0100000000000000
(1760621881.859493) can1 621#000080
(1760621881.860502) can1 635#32640E
(1760621881.903797) can1 1A0#97628D175DD40C90
(1760621881.908691) can1 353#0C480DB7000008
(1760621881.928792) can1 627#0039393939282828
(1760621881.949553) can1 351#00591B0010FFFF10
(1760621881.949554) can1 621#000080
(1760621882.008691) can1 353#0C480DB7000008
(1760621882.048183) can1 531#0101000000000000
(1760621882.050203) can1 351#00591B0010FFFF10
(1760621882.051216) can1 393#0100000000000000
(1760621882.052228) can1 392#0100000000000000
(1760621882.053233) can1 408#080400000000
(1760621882.054239) can1 551#00
(1760621882.055245) can1 591#0000000000000000
(1760621882.056256) can1 390#0100000000000000
(1760621882.057260) can1 470#0201000000000020
(1760621882.058466) can1 271#0700000000000000
(1760621882.059741) can1 391#0100000000000000
(1760621882.060871) can1 1A0#1464E3282A674DDA
(1760621882.061879) can1 621#000080
(1760621882.062886) can1 635#32640E
(1760621882.070458) can1 661#810112A000000000
(1760621882.108669) can1 353#0C480DB7000008
(1760621882.115387) can1 1A0#98085E3CC0FC60AF
(1760621882.139552) can1 2B5#C98A20EA5E263A4E
(1760621882.149517) can1 351#00591B0010FFFF10
(1760621882.149518) can1 621#000080
(1760621882.180714) can1 100#ECF5AA4B79165A65
(1760621882.208706) can1 353#0C480DB7000008
(1760621882.248255) can1 531#0101000000000000
(1760621882.250274) can1 351#00591B0010FFFF10
(1760621882.251283) can1 393#0100000000000000
(1760621882.252304) can1 392#0100000000000000
(1760621882.253302) can1 551#00
(1760621882.254310) can1 591#0000000000000000
(1760621882.255319) can1 390#0100000000000000
(1760621882.256322) can1 470#0201000000000020
(1760621882.257476) can1 271#0700000000000000
(1760621882.258733) can1 391#0100000000000000
(1760621882.259744) can1 60E#0A00
(1760621882.260752) can1 621#000080
(1760621882.261758) can1 623#0015385717102025
(1760621882.262770) can1 635#32640E
(1760621882.263778) can1 651#C01461002847
(1760621882.263780) can1 653#000200
(1760621882.295393) can1 1A0#892CF869EEC670F4
(1760621882.308702) can1 353#0C480DB7000008
(1760621882.349577) can1 351#00591B0010FFFF10
(1760621882.349578) can1 621#000080
(1760621882.408697) can1 353#0C480DB7000008
(1760621882.428783) can1 627#0039393939282828
(1760621882.448376) can1 531#0101000000000000
(1760621882.450391) can1 351#00591B0010FFFF10
(1760621882.451399) can1 393#0100000000000000
(1760621882.452403) can1 392#0100000000000000
(1760621882.453415) can1 551#00
(1760621882.454418) can1 591#0000000000000000
(1760621882.455436) can1 390#0100000000000000
(1760621882.456436) can1 470#0201000000000020
(1760621882.457594) can1 271#0700000000000000
(1760621882.458858) can1 391#0100000000000000
(1760621882.460014) can1 2B5#3A0F35E17A0B7617
(1760621882.461019) can1 621#000080
(1760621882.462032) can1 635#32640E
(1760621882.466717) can1 100#F3615EABE38D56D6
(1760621882.508656) can1 353#0C480DB7000008
(1760621882.510691) can1 1A0#AF24BD44A2DC5704
(1760621882.549495) can1 351#00591B0010FFFF10
(1760621882.549496) can1 621#000080
(1760621882.551510) can1 408#080400000000
(1760621882.570543) can1 661#810112A000000000
(1760621882.608652) can1 353#0C480DB7000008
(1760621882.648532) can1 531#0101000000000000
(1760621882.649705) can1 351#00591B0010FFFF10
(1760621882.651719) can1 393#0100000000000000
(1760621882.652724) can1 392#0100000000000000
(1760621882.653734) can1 551#00
(1760621882.654739) can1 591#0000000000000000
(1760621882.655748) can1 390#0100000000000000
(1760621882.656756) can1 470#0201000000000020
(1760621882.657763) can1 271#0700000000000000
(1760621882.658998) can1 391#0100000000000000
(1760621882.660003) can1 621#000080
(1760621882.661011) can1 635#32640E
(1760621882.708647) can1 353#0C480DB7000008
(1760621882.719281) can1 1A0#CF402C7BF8D34A96
(1760621882.749712) can1 351#00591B0010FFFF10
(1760621882.749717) can1 621#000080
(1760621882.750720) can1 651#C01461002847
(1760621882.751733) can1 653#000200
(1760621882.808655) can1 353#0C480DB7000008
(1760621882.845157) can1 2B5#FA332E253999AD2B
(1760621882.849507) can1 531#0101000000000000
(1760621882.850520) can1 351#00591B0010FFFF10
(1760621882.851523) can1 393#0100000000000000
(1760621882.852537) can1 392#0100000000000000
(1760621882.853548) can1 551#00
(1760621882.854558) can1 591#0000000000000000
(1760621882.855583) can1 390#0100000000000000
(1760621882.856634) can1 470#0201000000000020
(1760621882.857858) can1 271#0700000000000000
(1760621882.859129) can1 391#0100000000000000
(1760621882.860145) can1 621#000080
(1760621882.861174) can1 635#32640E
(1760621882.862833) can1 100#2EB578961A3494AC
(1760621882.908621) can1 353#0C480DB7000008
(1760621882.928712) can1 627#0039393939282828
(1760621882.949465) can1 351#00591B0010FFFF10
(1760621882.950479) can1 621#000080
(1760621882.974802) can1 1A0#0F3DDD51FDF92C43
(1760621883.008648) can1 353#0C480DB7000008
(1760621883.026528) can1 3C0#4A45325731593530
(1760621883.049482) can1 531#0101000000000000
(1760621883.050496) can1 351#00591B0010FFFF10
(1760621883.051507) can1 393#0100000000000000
(1760621883.052517) can1 392#0100000000000000
(1760621883.053527) can1 408#080400000000
(1760621883.054534) can1 551#00
(1760621883.055539) can1 591#0000000000000000
(1760621883.057560) can1 390#0100000000000000
(1760621883.058567) can1 470#0201000000000020
(1760621883.059573) can1 271#0700000000000000
(1760621883.060594) can1 391#0100000000000000
(1760621883.061597) can1 621#000080
(1760621883.062604) can1 635#32640E
(1760621883.070668) can1 661#810112A000000000
(1760621883.108639) can1 353#0C480DB7000008
(1760621883.149508) can1 351#00591B0010FFFF10
(1760621883.149509) can1 621#000080
(1760621883.168177) can1 100#F913DF5A2B2D3210
(1760621883.208649) can1 353#0C480DB7000008
(1760621883.248162) can1 60E#0A00
(1760621883.250182) can1 351#00591B0010FFFF10
(1760621883.251190) can1 531#0101000000000000
(1760621883.251191) can1 551#00
(1760621883.253205) can1 393#0100000000000000
(1760621883.254234) can1 392#0100000000000000
(1760621883.255230) can1 591#0000000000000000
(1760621883.256230) can1 470#0201000000000020
(1760621883.257402) can1 390#0100000000000000
(1760621883.258636) can1 271#0700000000000000
(1760621883.259892) can1 391#0100000000000000
(1760621883.260905) can1 621#000080
(1760621883.261910) can1 623#0015385817102025
(1760621883.262915) can1 635#32640E
(1760621883.263927) can1 651#C01461002847
(1760621883.264934) can1 653#000200
(1760621883.265941) can1 1A0#604BFB4BB0157D34
(1760621883.308607) can1 353#0C480DB7000008
(1760621883.349406) can1 351#00591B0010FFFF10
(1760621883.350414) can1 621#000080
(1760621883.393574) can1 100#B44478A6A6FA2FBF
(1760621883.408614) can1 353#0C480DB7000008
(1760621883.428701) can1 627#0039393939282828
(1760621883.442325) can1 1A0#1422C86C855CEE93
(1760621883.446567) can1 2B5#3965434AFA60D9A8
(1760621883.449491) can1 351#00591B0010FFFF10
(1760621883.450494) can1 531#0101000000000000
(1760621883.451491) can1 393#0100000000000000
(1760621883.452501) can1 392#0100000000000000
(1760621883.453509) can1 551#00
(1760621883.454514) can1 591#0000000000000000
(1760621883.455525) can1 470#0201000000000020
(1760621883.456760) can1 390#0100000000000000
(1760621883.458006) can1 271#0700000000000000
(1760621883.459239) can1 391#0100000000000000
(1760621883.460243) can1 621#000080
(1760621883.461251) can1 635#32640E
(1760621883.508618) can1 353#0C480DB7000008
(1760621883.549412) can1 351#00591B0010FFFF10
(1760621883.550423) can1 621#000080
(1760621883.551430) can1 408#080400000000
(1760621883.570800) can1 661#810112A000000000
(1760621883.582765) can1 1A0#2B04F5CE0F14DDE9
(1760621883.608591) can1 353#0C480DB7000008
(1760621883.649459) can1 351#00591B0010FFFF10
(1760621883.650468) can1 531#0101000000000000
(1760621883.651476) can1 393#0100000000000000
(1760621883.652501) can1 392#0100000000000000
(1760621883.653502) can1 551#00
(1760621883.654501) can1 591#0000000000000000
(1760621883.655510) can1 470#0201000000000020
(1760621883.657522) can1 390#0100000000000000
(1760621883.658534) can1 271#0700000000000000
(1760621883.659552) can1 391#0100000000000000
(1760621883.660560) can1 1A0#B0117494D8DE4D66
(1760621883.661570) can1 621#000080
(1760621883.662582) can1 635#32640E
(1760621883.708568) can1 353#0C480DB7000008
(1760621883.716590) can1 1A0#DC21F307AC5117B7
(1760621883.749631) can1 351#00591B0010FFFF10
(1760621883.749634) can1 621#000080
(1760621883.750636) can1 651#C01461002847
(1760621883.751640) can1 653#000200
(1760621883.808599) can1 353#0C480DB7000008
(1760621883.849446) can1 351#00591B0010FFFF10
(1760621883.850454) can1 531#0101000000000000
(1760621883.851463) can1 393#0100000000000000
(1760621883.852471) can1 392#0100000000000000
(1760621883.853481) can1 551#00
(1760621883.854492) can1 591#0000000000000000
(1760621883.855510) can1 390#0100000000000000
(1760621883.856742) can1 470#0201000000000020
(1760621883.857969) can1 271#0700000000000000
(1760621883.859219) can1 391#0100000000000000
(1760621883.860226) can1 621#000080
(1760621883.861232) can1 635#32640E
(1760621883.892431) can1 1A0#856188CF2F8C9EDD
(1760621883.908605) can1 353#0C480DB7000008
(1760621883.928689) can1 627#0039393939282828
(1760621883.949452) can1 351#00591B0010FFFF10
(1760621883.949453) can1 621#000080
(1760621883.971571) can1 100#BD2CFC7668FC83B5
(1760621884.008593) can1 353#0C480DB7000008
(1760621884.049442) can1 351#00591B0010FFFF10
(1760621884.050451) can1 531#0101000000000000
(1760621884.051455) can1 393#0100000000000000
(1760621884.052464) can1 392#0100000000000000
(1760621884.053472) can1 408#080400000000
(1760621884.054485) can1 551#00
(1760621884.055491) can1 591#0000000000000000
(1760621884.056521) can1 470#0201000000000020
(1760621884.057771) can1 390#0100000000000000
(1760621884.058998) can1 271#0700000000000000
(1760621884.060271) can1 391#0100000000000000
(1760621884.061397) can1 2B5#7DC445CAA98A53F0
(1760621884.062522) can1 1A0#C71CB6530965E598
(1760621884.063526) can1 621#000080
(1760621884.064532) can1 635#32640E
(1760621884.070901) can1 661#810112A000000000
(1760621884.107193) can1 3C0#484E373859424432
(1760621884.108547) can1 353#0C480DB7000008
(1760621884.131699) can1 1A0#7A0185702AA3FC66
(1760621884.149373) can1 351#00591B0010FFFF10
(1760621884.150377) can1 621#000080
(1760621884.208569) can1 353#0C480DB7000008
(1760621884.248133) can1 60E#0A00
(1760621884.250158) can1 351#00591B0010FFFF10
(1760621884.251161) can1 531#0101000000000000
(1760621884.252165) can1 393#0100000000000000
(1760621884.253193) can1 392#0100000000000000
(1760621884.254198) can1 551#00
(1760621884.255207) can1 591#0000000000000000
(1760621884.256215) can1 470#0201000000000020
(1760621884.257364) can1 390#0100000000000000
(1760621884.259532) can1 271#0700000000000000
(1760621884.260536) can1 391#0100000000000000
(1760621884.261547) can1 621#000080
(1760621884.262565) can1 623#0015385917102025
(1760621884.262567) can1 635#32640E
(1760621884.263568) can1 651#C01461002847
(1760621884.264581) can1 653#000200
(1760621884.308557) can1 353#0C480DB7000008
(1760621884.324622) can1 1A0#E2258AE130BBD9F1
(1760621884.349376) can1 351#00591B0010FFFF10
(1760621884.350380) can1 621#000080
(1760621884.408546) can1 353#0C480DB7000008
(1760621884.428643) can1 627#0039393939282828
(1760621884.436981) can1 100#95A330EBA95A8D9C
(1760621884.449418) can1 351#00591B0010FFFF10
(1760621884.450428) can1 531#0101000000000000
(1760621884.451431) can1 393#0100000000000000
(1760621884.452439) can1 392#0100000000000000
(1760621884.453449) can1 551#00
(1760621884.454456) can1 591#0000000000000000
(1760621884.455465) can1 390#0100000000000000
(1760621884.456673) can1 470#0201000000000020
(1760621884.457919) can1 271#0700000000000000
(1760621884.459168) can1 391#0100000000000000
(1760621884.460300) can1 2B5#C935359E304BD775
(1760621884.461307) can1 621#000080
(1760621884.462323) can1 635#32640E
(1760621884.508550) can1 353#0C480DB7000008
(1760621884.549368) can1 351#00591B0010FFFF10
(1760621884.550372) can1 621#000080
(1760621884.551380) can1 408#080400000000
(1760621884.564957) can1 1A0#D064C879988C0013
(1760621884.570992) can1 661#810112A000000000
(1760621884.608553) can1 353#0C480DB7000008
(1760621884.649429) can1 351#00591B0010FFFF10
(1760621884.650432) can1 531#0101000000000000
(1760621884.651436) can1 393#0100000000000000
(1760621884.652445) can1 392#0100000000000000
(1760621884.653455) can1 551#00
(1760621884.654461) can1 591#0000000000000000
(1760621884.655469) can1 390#0100000000000000
(1760621884.656699) can1 470#0201000000000020
(1760621884.657928) can1 271#0700000000000000
(1760621884.659179) can1 391#0100000000000000
(1760621884.660186) can1 621#000080
(1760621884.661193) can1 635#32640E
(1760621884.669026) can1 100#5F8A1B1B09DF28BB
(1760621884.697682) can1 1A0#1B365E16F1487D80
(1760621884.708533) can1 353#0C480DB7000008
(1760621884.749612) can1 351#00591B0010FFFF10
(1760621884.749615) can1 621#000080
(1760621884.750620) can1 651#C01461002847
(1760621884.751624) can1 653#000200
(1760621884.808522) can1 353#0C480DB7000008
(1760621884.849381) can1 351#00591B0010FFFF10
(1760621884.849382) can1 551#00
(1760621884.851401) can1 531#0101000000000000
(1760621884.852410) can1 393#0100000000000000
(1760621884.853421) can1 392#0100000000000000
(1760621884.854439) can1 591#0000000000000000
(1760621884.855439) can1 390#0100000000000000
(1760621884.856649) can1 470#0201000000000020
(1760621884.857888) can1 271#0700000000000000
(1760621884.859124) can1 391#0100000000000000
(1760621884.860130) can1 621#000080
(1760621884.861140) can1 635#32640E
(1760621884.908494) can1 353#0C480DB7000008
(1760621884.928601) can1 627#0039393939282828
(1760621884.939769) can1 3C0#39534C5641524844
(1760621884.949348) can1 351#00591B0010FFFF10
(1760621884.950354) can1 621#000080
(1760621884.951360) can1 1A0#62228573E02B9FA9
(1760621884.990037) can1 100#862E8A94BF02B80A
(1760621885.008672) can1 353#0C480DB7000008
(1760621885.049353) can1 351#00591B0010FFFF10
(1760621885.049355) can1 551#00
(1760621885.050371) can1 408#080400000000
(1760621885.051512) can1 531#0101000000000000
(1760621885.052772) can1 393#0100000000000000
(1760621885.054000) can1 392#0100000000000000
(1760621885.055249) can1 591#0000000000000000
(1760621885.056496) can1 470#0201000000000020
(1760621885.057729) can1 390#0100000000000000
(1760621885.058953) can1 271#0700000000000000
(1760621885.060205) can1 391#0100000000000000
(1760621885.061214) can1 621#000080
(1760621885.062220) can1 635#32640E
(1760621885.071435) can1 661#810112A000000000
(1760621885.077041) can1 1A0#3B401CEECD2301E2
(1760621885.108499) can1 353#0C480DB7000008
(1760621885.149339) can1 351#00591B0010FFFF10
(1760621885.150348) can1 621#000080
(1760621885.166207) can1 2B5#013228554A85CED5
(1760621885.208494) can1 353#0C480DB7000008
(1760621885.248043) can1 60E#0A00
(1760621885.250056) can1 351#00591B0010FFFF10
(1760621885.251087) can1 531#0101000000000000
(1760621885.252086) can1 393#0100000000000000
(1760621885.253095) can1 392#0100000000000000
(1760621885.254106) can1 551#00
(1760621885.255113) can1 591#0000000000000000
(1760621885.256119) can1 470#0201000000000020
(1760621885.257285) can1 390#0100000000000000
(1760621885.258514) can1 271#0700000000000000
(1760621885.259762) can1 391#0100000000000000
(1760621885.260769) can1 621#000080
(1760621885.261774) can1 623#0015390017102025
(1760621885.262785) can1 635#32640E
(1760621885.263797) can1 651#C01461002847
(1760621885.264803) can1 653#000200
(1760621885.308524) can1 353#0C480DB7000008
(1760621885.349362) can1 351#00591B0010FFFF10
(1760621885.349365) can1 621#000080
(1760621885.376373) can1 1A0#56644C380EA5C53A
(1760621885.408497) can1 353#0C480DB7000008
(1760621885.428619) can1 627#0039393939282828
(1760621885.448814) can1 351#00591B0010FFFF10
(1760621885.449825) can1 551#00
(1760621885.450828) can1 531#0101000000000000
(1760621885.451846) can1 393#0100000000000000
(1760621885.452909) can1 392#0100000000000000
(1760621885.454186) can1 591#0000000000000000
(1760621885.455417) can1 390#0100000000000000
(1760621885.456652) can1 470#0201000000000020
(1760621885.457894) can1 271#0700000000000000
(1760621885.459911) can1 391#0100000000000000
(1760621885.459913) can1 621#000080
(1760621885.460919) can1 635#32640E
(1760621885.505609) can1 1A0#C91910EB69FE3FDD
(1760621885.508491) can1 353#0C480DB7000008
(1760621885.549358) can1 351#00591B0010FFFF10
(1760621885.549360) can1 621#000080
(1760621885.551376) can1 408#080400000000
(1760621885.555428) can1 100#DE218B147D37A667
(1760621885.571240) can1 661#810112A000000000
(1760621885.579105) can1 2B5#2D574326EA23D24F
(1760621885.608450) can1 353#0C480DB7000008
(1760621885.649339) can1 351#00591B0010FFFF10
(1760621885.649340) can1 551#00
(1760621885.650363) can1 621#000080
(1760621885.651358) can1 531#0101000000000000
(1760621885.652396) can1 393#0100000000000000
(1760621885.653634) can1 392#0100000000000000
(1760621885.654886) can1 591#0000000000000000
(1760621885.656131) can1 390#0100000000000000
(1760621885.657381) can1 470#0201000000000020
(1760621885.658609) can1 271#0700000000000000
(1760621885.659860) can1 391#0100000000000000
(1760621885.660861) can1 635#32640E
(1760621885.708455) can1 353#0C480DB7000008
(1760621885.749514) can1 351#00591B0010FFFF10
(1760621885.749517) can1 621#000080
(1760621885.750525) can1 651#C01461002847
(1760621885.751533) can1 653#000200
(1760621885.778911) can1 1A0#C55CA7F4A6B1262C
(1760621885.808455) can1 353#0C480DB7000008
(1760621885.819493) can1 3C0#4A59433646313348
(1760621885.834013) can1 100#E400577DF315D14B
(1760621885.849326) can1 351#00591B0010FFFF10
(1760621885.849327) can1 551#00
(1760621885.850336) can1 621#000080
(1760621885.851337) can1 531#0101000000000000
(1760621885.852398) can1 393#0100000000000000
(1760621885.853636) can1 392#0100000000000000
(1760621885.854888) can1 591#0000000000000000
(1760621885.856149) can1 390#0100000000000000
(1760621885.857369) can1 470#0201000000000020
(1760621885.858620) can1 271#0700000000000000
(1760621885.859848) can1 391#0100000000000000
(1760621885.860869) can1 635#32640E
(1760621885.908471) can1 353#0C480DB7000008
(1760621885.928552) can1 627#0039393939282828
(1760621885.949303) can1 351#00591B0010FFFF10
(1760621885.950311) can1 621#000080
(1760621885.971890) can1 1A0#6242357D4B712F17
(1760621885.979201) can1 2B5#9F1648CC0FC1E529
(1760621886.008435) can1 353#0C480DB7000008
(1760621886.049331) can1 351#00591B0010FFFF10
(1760621886.049334) can1 551#00
(1760621886.050349) can1 408#080400000000
(1760621886.051457) can1 531#0101000000000000
(1760621886.053473) can1 393#0100000000000000
(1760621886.054480) can1 392#0100000000000000
(1760621886.055504) can1 591#0000000000000000
(1760621886.056504) can1 390#0100000000000000
(1760621886.057652) can1 470#0201000000000020
(1760621886.058881) can1 271#0700000000000000
(1760621886.060140) can1 391#0100000000000000
(1760621886.061148) can1 621#000080
(1760621886.062157) can1 635#32640E
(1760621886.071346) can1 661#810112A000000000
(1760621886.108463) can1 353#0C480DB7000008
(1760621886.149286) can1 351#00591B0010FFFF10
(1760621886.150292) can1 621#000080
(1760621886.208466) can1 353#0C480DB7000008
(1760621886.227788) can1 100#8F0BD4CE444ADF5A
(1760621886.248016) can1 60E#0A00
(1760621886.250031) can1 351#00591B0010FFFF10
(1760621886.250036) can1 551#00
(1760621886.251056) can1 531#0101000000000000
(1760621886.253072) can1 393#0100000000000000
(1760621886.254078) can1 392#0100000000000000
(1760621886.255086) can1 591#0000000000000000
(1760621886.256091) can1 390#0100000000000000
(1760621886.257273) can1 470#0201000000000020
(1760621886.258490) can1 271#0700000000000000
(1760621886.259735) can1 391#0100000000000000
(1760621886.260750) can1 621#000080
(1760621886.261767) can1 623#0015390117102025
(1760621886.262766) can1 635#32640E
(1760621886.263773) can1 651#C01461002847
(1760621886.264781) can1 653#000200
(1760621886.270237) can1 1A0#932AB6312F2BC90A
(1760621886.299413) can1 2B5#798C45DB15D842D1
(1760621886.308442) can1 353#0C480DB7000008
(1760621886.327481) can1 3C0#5846303039344D4D
(1760621886.349285) can1 351#00591B0010FFFF10
(1760621886.350293) can1 621#000080
(1760621886.408414) can1 353#0C480DB7000008
(1760621886.428526) can1 627#0039393939282828
(1760621886.449304) can1 351#00591B0010FFFF10
(1760621886.449306) can1 551#00
(1760621886.450314) can1 621#000080
(1760621886.451316) can1 531#0101000000000000
(1760621886.452344) can1 393#0100000000000000
(1760621886.453580) can1 392#0100000000000000
(1760621886.454834) can1 591#0000000000000000
(1760621886.456105) can1 390#0100000000000000
(1760621886.457323) can1 470#0201000000000020
(1760621886.458552) can1 271#0700000000000000
(1760621886.459813) can1 391#0100000000000000
(1760621886.460832) can1 635#32640E
(1760621886.480255) can1 1A0#5E0A1A7F581A6EC2
(1760621886.509280) can1 353#0C480DB7000008
(1760621886.538235) can1 100#BC157AB06F25AD57
(1760621886.549242) can1 351#00591B0010FFFF10
(1760621886.550249) can1 621#000080
(1760621886.551258) can1 408#080400000000
(1760621886.571482) can1 661#810112A000000000
(1760621886.608410) can1 353#0C480DB7000008
(1760621886.649266) can1 351#00591B0010FFFF10
(1760621886.649267) can1 551#00
(1760621886.650290) can1 621#000080
(1760621886.651287) can1 531#0101000000000000
(1760621886.652357) can1 393#0100000000000000
(1760621886.653616) can1 392#0100000000000000
(1760621886.654851) can1 591#0000000000000000
(1760621886.656096) can1 390#0100000000000000
(1760621886.657328) can1 470#0201000000000020
(1760621886.658563) can1 271#0700000000000000
(1760621886.659807) can1 391#0100000000000000
(1760621886.660819) can1 635#32640E
(1760621886.708415) can1 353#0C480DB7000008
(1760621886.749454) can1 351#00591B0010FFFF10
(1760621886.749457) can1 621#000080
(1760621886.750460) can1 651#C01461002847
(1760621886.751469) can1 653#000200
(1760621886.754335) can1 1A0#66135B8ED20C035D
(1760621886.772992) can1 2B5#69542896CCACC8CB
(1760621886.808386) can1 353#0C480DB7000008
(1760621886.848495) can1 351#00591B0010FFFF10
(1760621886.849503) can1 551#00
(1760621886.850514) can1 621#000080
(1760621886.851521) can1 635#32640E
(1760621886.852549) can1 531#0101000000000000
(1760621886.853547) can1 393#0100000000000000
(1760621886.854552) can1 392#0100000000000000
(1760621886.855556) can1 591#0000000000000000
(1760621886.856826) can1 390#0100000000000000
(1760621886.858047) can1 470#0201000000000020
(1760621886.859258) can1 271#0700000000000000
(1760621886.860548) can1 391#0100000000000000
(1760621886.908435) can1 353#0C480DB7000008
(1760621886.927849) can1 1A0#6E0151DDDCB0DE73
(1760621886.929871) can1 627#0039393939282828
(1760621886.949232) can1 351#00591B0010FFFF10
(1760621886.950241) can1 621#000080
(1760621887.009036) can1 353#0C480DB7000008
(1760621887.049278) can1 351#00591B0010FFFF10
(1760621887.049280) can1 551#00
(1760621887.050285) can1 408#080400000000
(1760621887.051413) can1 531#0101000000000000
(1760621887.052670) can1 393#0100000000000000
(1760621887.053888) can1 392#0100000000000000
(1760621887.055138) can1 591#0000000000000000
(1760621887.056388) can1 390#0100000000000000
(1760621887.057620) can1 470#0201000000000020
(1760621887.058854) can1 271#0700000000000000
(1760621887.060097) can1 391#0100000000000000
(1760621887.061104) can1 621#000080
(1760621887.062115) can1 635#32640E
(1760621887.071309) can1 100#B6A5583B787E6303
(1760621887.072309) can1 661#810112A000000000
(1760621887.108397) can1 353#0C480DB7000008
(1760621887.114703) can1 1A0#3209BB225BD4ED22
(1760621887.139006) can1 2B5#FEF3503EF75950A5
(1760621887.149243) can1 351#00591B0010FFFF10
(1760621887.149245) can1 621#000080
(1760621887.209013) can1 353#0C480DB7000008
(1760621887.220316) can1 1A0#A45C898858FF93BA
(1760621887.247955) can1 60E#0A00
(1760621887.249957) can1 351#00591B0010FFFF10
(1760621887.249962) can1 551#00
(1760621887.250963) can1 621#000080
(1760621887.251976) can1 531#0101000000000000
(1760621887.252982) can1 393#0100000000000000
(1760621887.254994) can1 392#0100000000000000
(1760621887.256029) can1 591#0000000000000000
(1760621887.257014) can1 390#0100000000000000
(1760621887.258016) can1 470#0201000000000020
(1760621887.259161) can1 271#0700000000000000
(1760621887.260412) can1 391#0100000000000000
(1760621887.261559) can1 3C0#4C4E4D3330344B59
(1760621887.262697) can1 623#0015390217102025
(1760621887.263707) can1 635#32640E
(1760621887.264731) can1 651#C01461002847
(1760621887.265738) can1 653#000200
(1760621887.308392) can1 353#0C480DB7000008
(1760621887.349225) can1 351#00591B0010FFFF10
(1760621887.349228) can1 621#000080
(1760621887.381231) can1 1A0#AC0F396E1FC5B18D
(1760621887.408368) can1 353#0C480DB7000008
(1760621887.428467) can1 627#0039393939282828
(1760621887.449230) can1 351#00591B0010FFFF10
(1760621887.449231) can1 551#00
(1760621887.450239) can1 621#000080
(1760621887.451243) can1 635#32640E
(1760621887.452249) can1 531#0101000000000000
(1760621887.453259) can1 393#0100000000000000
(1760621887.454269) can1 392#0100000000000000
(1760621887.455522) can1 591#0000000000000000
(1760621887.456776) can1 390#0100000000000000
(1760621887.458015) can1 470#0201000000000020
(1760621887.459237) can1 271#0700000000000000
(1760621887.460485) can1 391#0100000000000000
(1760621887.477382) can1 2B5#137D2FAA93D50604
(1760621887.508365) can1 353#0C480DB7000008
(1760621887.549210) can1 351#00591B0010FFFF10
(1760621887.549212) can1 621#000080
(1760621887.551220) can1 408#080400000000
(1760621887.571691) can1 661#810112A000000000
(1760621887.608338) can1 353#0C480DB7000008
(1760621887.611298) can1 100#66E4EBE65A37B35F
(1760621887.635050) can1 1A0#283FB323B8930568
(1760621887.649224) can1 351#00591B0010FFFF10
(1760621887.649225) can1 551#00
(1760621887.650237) can1 621#000080
(1760621887.651243) can1 635#32640E
(1760621887.652250) can1 531#0101000000000000
(1760621887.653255) can1 393#0100000000000000
(1760621887.654294) can1 392#0100000000000000
(1760621887.655562) can1 591#0000000000000000
(1760621887.656805) can1 390#0100000000000000
(1760621887.658989) can1 470#0201000000000020
(1760621887.660005) can1 271#0700000000000000
(1760621887.661015) can1 391#0100000000000000
(1760621887.708376) can1 353#0C480DB7000008
(1760621887.749412) can1 351#00591B0010FFFF10
(1760621887.749415) can1 621#000080
(1760621887.750417) can1 651#C01461002847
(1760621887.751427) can1 653#000200
(1760621887.808372) can1 353#0C480DB7000008
(1760621887.849208) can1 351#00591B0010FFFF10
(1760621887.849210) can1 551#00
(1760621887.850228) can1 621#000080
(1760621887.851226) can1 635#32640E
(1760621887.852231) can1 531#0101000000000000
(1760621887.853275) can1 393#0100000000000000
(1760621887.854512) can1 392#0100000000000000
(1760621887.855763) can1 591#0000000000000000
(1760621887.857020) can1 390#0100000000000000
(1760621887.858241) can1 470#0201000000000020
(1760621887.859477) can1 271#0700000000000000
(1760621887.860727) can1 391#0100000000000000
(1760621887.901702) can1 1A0#8002C21CBA6C2243
(1760621887.908356) can1 353#0C480DB7000008
(1760621887.928459) can1 627#0039393939282828
(1760621887.949202) can1 351#00591B0010FFFF10
(1760621887.949203) can1 621#000080
(1760621888.008312) can1 353#0C480DB7000008
(1760621888.049193) can1 351#00591B0010FFFF10
(1760621888.049194) can1 551#00
(1760621888.050202) can1 408#080400000000
(1760621888.051238) can1 621#000080
(1760621888.052236) can1 100#5AFE5BD2F13E297C
(1760621888.053254) can1 531#0101000000000000
(1760621888.054489) can1 393#0100000000000000
(1760621888.055737) can1 392#0100000000000000
(1760621888.056987) can1 591#0000000000000000
(1760621888.058237) can1 390#0100000000000000
(1760621888.059487) can1 470#0201000000000020
(1760621888.060687) can1 271#0700000000000000
(1760621888.061950) can1 391#0100000000000000
(1760621888.062961) can1 635#32640E
(1760621888.071829) can1 661#810112A000000000
(1760621888.108334) can1 353#0C480DB7000008
(1760621888.149147) can1 351#00591B0010FFFF10
(1760621888.150159) can1 621#000080
(1760621888.180041) can1 2B5#815C1478C2F7C3DA
(1760621888.185704) can1 1A0#215F9888EC5EE2C2
(1760621888.208329) can1 353#0C480DB7000008
(1760621888.247885) can1 60E#0A00
(1760621888.249907) can1 351#00591B0010FFFF10
(1760621888.249911) can1 551#00
(1760621888.250913) can1 621#000080
(1760621888.251924) can1 623#0015390317102025
(1760621888.252943) can1 531#0101000000000000
(1760621888.254952) can1 393#0100000000000000
(1760621888.255960) can1 392#0100000000000000
(1760621888.256965) can1 591#0000000000000000
(1760621888.257978) can1 390#0100000000000000
(1760621888.259060) can1 470#0201000000000020
(1760621888.260282) can1 271#0700000000000000
(1760621888.261530) can1 391#0100000000000000
(1760621888.262542) can1 635#32640E
(1760621888.263547) can1 651#C01461002847
(1760621888.264557) can1 653#000200
(1760621888.308326) can1 353#0C480DB7000008
(1760621888.349152) can1 351#00591B0010FFFF10
(1760621888.349153) can1 621#000080
(1760621888.405549) can1 1A0#A0591274539952D0
(1760621888.408290) can1 353#0C480DB7000008
(1760621888.425577) can1 3C0#3255544E33365458
(1760621888.428382) can1 627#0039393939282828
(1760621888.449198) can1 351#00591B0010FFFF10
(1760621888.449200) can1 551#00
(1760621888.450209) can1 621#000080
(1760621888.451218) can1 635#32640E
(1760621888.452512) can1 531#0101000000000000
(1760621888.453758) can1 393#0100000000000000
(1760621888.455009) can1 392#0100000000000000
(1760621888.456260) can1 591#0000000000000000
(1760621888.457475) can1 470#0201000000000020
(1760621888.458724) can1 390#0100000000000000
(1760621888.459959) can1 271#0700000000000000
(1760621888.461200) can1 391#0100000000000000
(1760621888.508335) can1 353#0C480DB7000008
(1760621888.525615) can1 100#6EE4A4584CE6CB20
(1760621888.549138) can1 351#00591B0010FFFF10
(1760621888.550143) can1 621#000080
(1760621888.551152) can1 408#080400000000
(1760621888.571889) can1 661#810112A000000000
(1760621888.573612) can1 1A0#5706880E54F24491
(1760621888.608321) can1 353#0C480DB7000008
(1760621888.649171) can1 351#00591B0010FFFF10
(1760621888.649173) can1 551#00
(1760621888.650179) can1 621#000080
(1760621888.651187) can1 635#32640E
(1760621888.652644) can1 531#0101000000000000
(1760621888.653894) can1 393#0100000000000000
(1760621888.655114) can1 392#0100000000000000
(1760621888.656366) can1 591#0000000000000000
(1760621888.657614) can1 390#0100000000000000
(1760621888.658866) can1 470#0201000000000020
(1760621888.660073) can1 271#0700000000000000
(1760621888.661326) can1 391#0100000000000000
(1760621888.708290) can1 353#0C480DB7000008
(1760621888.728348) can1 2B5#B0C43AF2071CCBA2
(1760621888.748371) can1 351#00591B0010FFFF10
(1760621888.749381) can1 621#000080
(1760621888.750400) can1 651#C01461002847
(1760621888.751399) can1 653#000200
(1760621888.808278) can1 353#0C480DB7000008
(1760621888.838491) can1 1A0#C720F4FD4FB60330
(1760621888.848993) can1 351#00591B0010FFFF10
(1760621888.848994) can1 551#00
(1760621888.850006) can1 621#000080
(1760621888.851033) can1 635#32640E
(1760621888.852800) can1 531#0101000000000000
(1760621888.854042) can1 393#0100000000000000
(1760621888.855280) can1 392#0100000000000000
(1760621888.856529) can1 591#0000000000000000
(1760621888.857779) can1 390#0100000000000000
(1760621888.859008) can1 470#0201000000000020
(1760621888.860236) can1 271#0700000000000000
(1760621888.861481) can1 391#0100000000000000
(1760621888.908284) can1 353#0C480DB7000008
(1760621888.918632) can1 1A0#8211EB63591C90C9
(1760621888.928382) can1 627#0039393939282828
(1760621888.949097) can1 351#00591B0010FFFF10
(1760621888.950102) can1 621#000080
(1760621888.991919) can1 100#EAA6284BCAB3D289
(1760621889.008296) can1 353#0C480DB7000008
(1760621889.044253) can1 1A0#7D23D450DFDA3475
(1760621889.049123) can1 351#00591B0010FFFF10
(1760621889.049125) can1 551#00
(1760621889.050137) can1 408#080400000000
(1760621889.051139) can1 621#000080
(1760621889.052166) can1 635#32640E
(1760621889.053165) can1 531#0101000000000000
(1760621889.054178) can1 393#0100000000000000
(1760621889.055382) can1 392#0100000000000000
(1760621889.056634) can1 591#0000000000000000
(1760621889.057915) can1 390#0100000000000000
(1760621889.059123) can1 470#0201000000000020
(1760621889.060346) can1 271#0700000000000000
(1760621889.061609) can1 391#0100000000000000
(1760621889.072042) can1 661#810112A000000000
(1760621889.108256) can1 353#0C480DB7000008
(1760621889.149112) can1 351#00591B0010FFFF10
(1760621889.149113) can1 621#000080
(1760621889.173774) can1 1A0#AD306BE5F7781C71
(1760621889.208400) can1 353#0C480DB7000008
(1760621889.232265) can1 3C0#565852544D535850
(1760621889.247863) can1 60E#0A00
(1760621889.249879) can1 351#00591B0010FFFF10
(1760621889.249881) can1 551#00
(1760621889.250889) can1 621#000080
(1760621889.251899) can1 623#0015390417102025
(1760621889.252904) can1 635#32640E
(1760621889.253929) can1 531#0101000000000000
(1760621889.254926) can1 393#0100000000000000
(1760621889.256057) can1 392#0100000000000000
(1760621889.257301) can1 591#0000000000000000
(1760621889.258518) can1 470#0201000000000020
(1760621889.259770) can1 271#0700000000000000
(1760621889.261003) can1 390#0100000000000000
(1760621889.262245) can1 391#0100000000000000
(1760621889.263256) can1 651#C01461002847
(1760621889.264262) can1 653#000200
(1760621889.303616) can1 100#6C198E14F1F7ED22
(1760621889.308307) can1 353#0C480DB7000008
(1760621889.340478) can1 1A0#9D46BD15C8D31EB6
(1760621889.349095) can1 351#00591B0010FFFF10
(1760621889.350104) can1 621#000080
(1760621889.408250) can1 353#0C480DB7000008
(1760621889.428396) can1 627#0039393939282828
(1760621889.436119) can1 2B5#CAEB21A990330531
(1760621889.449117) can1 351#00591B0010FFFF10
(1760621889.449119) can1 551#00
(1760621889.450133) can1 621#000080
(1760621889.451139) can1 635#32640E
(1760621889.453145) can1 531#0101000000000000
(1760621889.454380) can1 393#0100000000000000
(1760621889.455619) can1 392#0100000000000000
(1760621889.456868) can1 591#0000000000000000
(1760621889.458111) can1 470#0201000000000020
(1760621889.459351) can1 390#0100000000000000
(1760621889.460584) can1 271#0700000000000000
(1760621889.461828) can1 391#0100000000000000
(1760621889.508240) can1 353#0C480DB7000008
(1760621889.549104) can1 351#00591B0010FFFF10
(1760621889.549106) can1 621#000080
(1760621889.551123) can1 408#080400000000
(1760621889.552133) can1 1A0#7700B7D63109EC8D
(1760621889.572134) can1 661#810112A000000000
(1760621889.580113) can1 100#96FBD169FB6ECACC
(1760621889.608232) can1 353#0C480DB7000008
(1760621889.649112) can1 351#00591B0010FFFF10
(1760621889.649114) can1 551#00
(1760621889.650124) can1 621#000080
(1760621889.651139) can1 635#32640E
(1760621889.653357) can1 531#0101000000000000
(1760621889.654508) can1 393#0100000000000000
(1760621889.655763) can1 392#0100000000000000
(1760621889.656997) can1 591#0000000000000000
(1760621889.658225) can1 470#0201000000000020
(1760621889.659476) can1 390#0100000000000000
(1760621889.660709) can1 271#0700000000000000
(1760621889.661957) can1 391#0100000000000000
(1760621889.708841) can1 353#0C480DB7000008
(1760621889.749275) can1 351#00591B0010FFFF10
(1760621889.749282) can1 621#000080
(1760621889.750287) can1 651#C01461002847
(1760621889.751295) can1 653#000200
(1760621889.780856) can1 2B5#B8AB363EEC53F9E2
(1760621889.804846) can1 3C0#5338434D30335847
(1760621889.808237) can1 353#0C480DB7000008
(1760621889.813486) can1 1A0#A0017154E31843D0
(1760621889.849085) can1 351#00591B0010FFFF10
(1760621889.849087) can1 551#00
(1760621889.850086) can1 621#000080
(1760621889.851087) can1 635#32640E
(1760621889.853389) can1 531#0101000000000000
(1760621889.854629) can1 393#0100000000000000
(1760621889.855863) can1 392#0100000000000000
(1760621889.857121) can1 591#0000000000000000
(1760621889.858344) can1 470#0201000000000020
(1760621889.859594) can1 390#0100000000000000
(1760621889.860833) can1 271#0700000000000000
(1760621889.862084) can1 391#0100000000000000
(1760621889.908212) can1 353#0C480DB7000008
(1760621889.928293) can1 627#0039393939282828
(1760621889.949053) can1 351#00591B0010FFFF10
(1760621889.949054) can1 621#000080
(1760621890.002356) can1 1A0#465C6DC91E7EB0FC
(1760621890.008216) can1 353#0C480DB7000008
(1760621890.048345) can1 351#00591B0010FFFF10
(1760621890.049347) can1 551#00
(1760621890.050372) can1 408#080400000000
(1760621890.051378) can1 621#000080
(1760621890.052386) can1 635#32640E
(1760621890.053512) can1 531#0101000000000000
(1760621890.054773) can1 393#0100000000000000
(1760621890.055993) can1 392#0100000000000000
(1760621890.057254) can1 591#0000000000000000
(1760621890.058487) can1 470#0201000000000020
(1760621890.059721) can1 271#0700000000000000
(1760621890.060970) can1 390#0100000000000000
(1760621890.062220) can1 391#0100000000000000
(1760621890.072261) can1 661#810112A000000000
(1760621890.108240) can1 353#0C480DB7000008
(1760621890.149059) can1 351#00591B0010FFFF10
(1760621890.150069) can1 621#000080
(1760621890.151074) can1 100#BD2F18E8CBAFD0E4
(1760621890.169100) can1 1A0#EE056481E620A1D0
(1760621890.208211) can1 353#0C480DB7000008
(1760621890.247777) can1 60E#0A00
(1760621890.249796) can1 351#00591B0010FFFF10
(1760621890.249799) can1 551#00
(1760621890.250803) can1 621#000080
(1760621890.251814) can1 623#0015390517102025
(1760621890.252822) can1 635#32640E
(1760621890.253829) can1 651#C01461002847
(1760621890.254839) can1 531#0101000000000000
(1760621890.255856) can1 393#0100000000000000
(1760621890.256925) can1 392#0100000000000000
(1760621890.258151) can1 591#0000000000000000
(1760621890.259391) can1 470#0201000000000020
(1760621890.260624) can1 271#0700000000000000
(1760621890.261873) can1 390#0100000000000000
(1760621890.263120) can1 391#0100000000000000
(1760621890.264262) can1 1A0#1D0E4ED056038D2A
(1760621890.265271) can1 653#000200
(1760621890.308208) can1 353#0C480DB7000008
(1760621890.349052) can1 351#00591B0010FFFF10
(1760621890.349055) can1 621#000080
(1760621890.394903) can1 100#AECA5FCA5783A093
(1760621890.408173) can1 353#0C480DB7000008
(1760621890.428282) can1 627#0039393939282828
(1760621890.440505) can1 1A0#8F08D9717FA04DE0
(1760621890.441637) can1 2B5#14064A59CC646FEE
(1760621890.449045) can1 351#00591B0010FFFF10
(1760621890.449046) can1 551#00
(1760621890.450055) can1 621#000080
(1760621890.451063) can1 635#32640E
(1760621890.453749) can1 531#0101000000000000
(1760621890.454993) can1 393#0100000000000000
(1760621890.456241) can1 392#0100000000000000
(1760621890.457490) can1 591#0000000000000000
(1760621890.458714) can1 470#0201000000000020
(1760621890.459932) can1 271#0700000000000000
(1760621890.461189) can1 390#0100000000000000
(1760621890.462441) can1 391#0100000000000000
(1760621890.508186) can1 353#0C480DB7000008
(1760621890.539747) can1 1A0#3A4606DF412D444D
(1760621890.549009) can1 351#00591B0010FFFF10
(1760621890.550015) can1 621#000080
(1760621890.551022) can1 408#080400000000
(1760621890.572346) can1 661#810112A000000000
(1760621890.608178) can1 353#0C480DB7000008
(1760621890.649038) can1 351#00591B0010FFFF10
(1760621890.649040) can1 551#00
(1760621890.650051) can1 621#000080
(1760621890.651056) can1 635#32640E
(1760621890.653902) can1 531#0101000000000000
(1760621890.655130) can1 393#0100000000000000
(1760621890.656381) can1 392#0100000000000000
(1760621890.657631) can1 591#0000000000000000
(1760621890.658876) can1 470#0201000000000020
(1760621890.660083) can1 271#0700000000000000
(1760621890.661338) can1 390#0100000000000000
(1760621890.662585) can1 391#0100000000000000
(1760621890.674077) can1 1A0#D42547E3C3B038F2
(1760621890.708167) can1 353#0C480DB7000008
(1760621890.749224) can1 351#00591B0010FFFF10
(1760621890.749227) can1 621#000080
(1760621890.750236) can1 651#C01461002847
(1760621890.751257) can1 653#000200
(1760621890.785950) can1 100#3031CDB7923ED8AE
(1760621890.808178) can1 353#0C480DB7000008
(1760621890.832147) can1 1A0#044E042F45C2C27E
(1760621890.849054) can1 351#00591B0010FFFF10
(1760621890.849055) can1 551#00
(1760621890.850062) can1 621#000080
(1760621890.851070) can1 635#32640E
(1760621890.852073) can1 3C0#3555503239544248
(1760621890.854012) can1 531#0101000000000000
(1760621890.855262) can1 393#0100000000000000
(1760621890.856489) can1 392#0100000000000000
(1760621890.857739) can1 591#0000000000000000
(1760621890.858966) can1 470#0201000000000020
(1760621890.860191) can1 271#0700000000000000
(1760621890.861445) can1 390#0100000000000000
(1760621890.862696) can1 391#0100000000000000
(1760621890.908190) can1 353#0C480DB7000008
(1760621890.928286) can1 627#0039393939282828
(1760621890.949021) can1 351#00591B0010FFFF10
(1760621890.949023) can1 621#000080
(1760621891.008168) can1 353#0C480DB7000008
(1760621891.010407) can1 100#1F6FCDE520499367
(1760621891.049031) can1 351#00591B0010FFFF10
(1760621891.049033) can1 551#00
(1760621891.050044) can1 408#080400000000
(1760621891.051056) can1 621#000080
(1760621891.052064) can1 635#32640E
(1760621891.054119) can1 531#0101000000000000
(1760621891.056174) can1 393#0100000000000000
(1760621891.057150) can1 392#0100000000000000
(1760621891.058151) can1 591#0000000000000000
(1760621891.059161) can1 470#0201000000000020
(1760621891.060331) can1 390#0100000000000000
(1760621891.061559) can1 271#0700000000000000
(1760621891.062808) can1 391#0100000000000000
(1760621891.072463) can1 661#810112A000000000
(1760621891.076218) can1 1A0#B128A846C523D9D1
(1760621891.083934) can1 2B5#8DCD524A82B031BE
(1760621891.108120) can1 353#0C480DB7000008
(1760621891.148985) can1 351#00591B0010FFFF10
(1760621891.148988) can1 621#000080
(1760621891.162654) can1 1A0#CA2EA01FB6A1A732
(1760621891.208137) can1 353#0C480DB7000008
(1760621891.247711) can1 60E#0A00
(1760621891.249729) can1 351#00591B0010FFFF10
(1760621891.249732) can1 551#00
(1760621891.250741) can1 621#000080
(1760621891.251750) can1 623#0015390617102025
(1760621891.252762) can1 635#32640E
(1760621891.253784) can1 651#C01461002847
(1760621891.254787) can1 531#0101000000000000
(1760621891.255788) can1 393#0100000000000000
(1760621891.256839) can1 392#0100000000000000
(1760621891.258088) can1 591#0000000000000000
(1760621891.259327) can1 470#0201000000000020
(1760621891.260555) can1 271#0700000000000000
(1760621891.261805) can1 390#0100000000000000
(1760621891.263053) can1 391#0100000000000000
(1760621891.264061) can1 653#000200
(1760621891.272412) can1 1A0#A823B648415C0F46
(1760621891.308163) can1 353#0C480DB7000008
(1760621891.348986) can1 351#00591B0010FFFF10
(1760621891.348988) can1 621#000080
(1760621891.362695) can1 1A0#9A1FE327B510BBA8
(1760621891.402566) can1 100#72FEADDA7C7F66DE
(1760621891.408132) can1 353#0C480DB7000008
(1760621891.428229) can1 627#0039393939282828
(1760621891.449015) can1 351#00591B0010FFFF10
(1760621891.449017) can1 551#00
(1760621891.450048) can1 621#000080
(1760621891.451046) can1 635#32640E
(1760621891.454961) can1 531#0101000000000000
(1760621891.455965) can1 393#0100000000000000
(1760621891.456970) can1 392#0100000000000000
(1760621891.458070) can1 591#0000000000000000
(1760621891.460092) can1 470#0201000000000020
(1760621891.461100) can1 271#0700000000000000
(1760621891.462110) can1 390#0100000000000000
(1760621891.463121) can1 391#0100000000000000
(1760621891.467044) can1 1A0#01010C6299A95C74
(1760621891.508099) can1 353#0C480DB7000008
(1760621891.548946) can1 351#00591B0010FFFF10
(1760621891.549940) can1 621#000080
(1760621891.550949) can1 408#080400000000
(1760621891.572567) can1 661#810112A000000000
(1760621891.587369) can1 1A0#97408CB2429117C8
(1760621891.608123) can1 353#0C480DB7000008
(1760621891.648728) can1 351#00591B0010FFFF10
(1760621891.649735) can1 551#00
(1760621891.649738) can1 621#000080
(1760621891.650745) can1 635#32640E
(1760621891.654512) can1 531#0101000000000000
(1760621891.655764) can1 393#0100000000000000
(1760621891.656991) can1 392#0100000000000000
(1760621891.658240) can1 591#0000000000000000
(1760621891.659462) can1 470#0201000000000020
(1760621891.660697) can1 271#0700000000000000
(1760621891.661947) can1 390#0100000000000000
(1760621891.663199) can1 391#0100000000000000
(1760621891.707326) can1 2B5#5B3158E18683D9B0
(1760621891.709343) can1 353#0C480DB7000008
(1760621891.746618) can1 1A0#2C5A7F9D721ECF49
(1760621891.748637) can1 351#00591B0010FFFF10
(1760621891.749648) can1 621#000080
(1760621891.750656) can1 651#C01461002847
(1760621891.751662) can1 653#000200
(1760621891.808110) can1 353#0C480DB7000008
(1760621891.843343) can1 1A0#605D580672C37DE8
(1760621891.848961) can1 351#00591B0010FFFF10
(1760621891.848963) can1 551#00
(1760621891.849970) can1 621#000080
(1760621891.850980) can1 635#32640E
(1760621891.854617) can1 531#0101000000000000
(1760621891.855884) can1 393#0100000000000000
(1760621891.857097) can1 392#0100000000000000
(1760621891.858342) can1 591#0000000000000000
(1760621891.859577) can1 470#0201000000000020
(1760621891.860816) can1 271#0700000000000000
(1760621891.862066) can1 390#0100000000000000
(1760621891.863296) can1 391#0100000000000000
(1760621891.908085) can1 353#0C480DB7000008
(1760621891.910105) can1 100#A7AB0E859D5A1811
(1760621891.928195) can1 627#0039393939282828
(1760621891.949009) can1 351#00591B0010FFFF10
(1760621891.949012) can1 621#000080
(1760621892.008803) can1 353#0C480DB7000008
(1760621892.049149) can1 351#00591B0010FFFF10
(1760621892.049151) can1 551#00
(1760621892.050159) can1 408#080400000000
(1760621892.051163) can1 621#000080
(1760621892.052170) can1 635#32640E
(1760621892.054748) can1 531#0101000000000000
(1760621892.056024) can1 393#0100000000000000
(1760621892.057229) can1 392#0100000000000000
(1760621892.058470) can1 591#0000000000000000
(1760621892.059708) can1 470#0201000000000020
(1760621892.060952) can1 271#0700000000000000
(1760621892.062201) can1 390#0100000000000000
(1760621892.063451) can1 391#0100000000000000
(1760621892.064585) can1 1A0#081598DDD7631EC1
(1760621892.072702) can1 661#810112A000000000
(1760621892.108096) can1 353#0C480DB7000008
(1760621892.136040) can1 100#6BB0120E210F3233
(1760621892.148254) can1 351#00591B0010FFFF10
(1760621892.149264) can1 621#000080
(1760621892.208086) can1 353#0C480DB7000008
(1760621892.217550) can1 1A0#664E4E5824AA8063
(1760621892.241283) can1 3C0#3857353948424D56
(1760621892.248379) can1 60E#0A00
(1760621892.249403) can1 351#00591B0010FFFF10
(1760621892.249407) can1 551#00
(1760621892.250409) can1 621#000080
(1760621892.251418) can1 623#0015390717102025
(1760621892.252425) can1 635#32640E
(1760621892.253433) can1 651#C01461002847
(1760621892.254447) can1 653#000200
(1760621892.255465) can1 531#0101000000000000
(1760621892.256463) can1 393#0100000000000000
(1760621892.257529) can1 392#0100000000000000
(1760621892.258763) can1 591#0000000000000000
(1760621892.259995) can1 470#0201000000000020
(1760621892.261247) can1 271#0700000000000000
(1760621892.262469) can1 390#0100000000000000
(1760621892.263717) can1 391#0100000000000000
(1760621892.308091) can1 353#0C480DB7000008
(1760621892.338919) can1 2B5#D6251C841E82331B
(1760621892.348531) can1 351#00591B0010FFFF10
(1760621892.349543) can1 621#000080
(1760621892.382650) can1 100#3B7EF2FDE2DB6244
(1760621892.408096) can1 353#0C480DB7000008
(1760621892.425256) can1 1A0#78638B19EF5A025B
(1760621892.428167) can1 627#0039393939282828
(1760621892.448611) can1 351#00591B0010FFFF10
(1760621892.449622) can1 551#00
(1760621892.449626) can1 621#000080
(1760621892.450635) can1 635#32640E
(1760621892.455009) can1 531#0101000000000000
(1760621892.456227) can1 393#0100000000000000
(1760621892.457474) can1 392#0100000000000000
(1760621892.458734) can1 591#0000000000000000
(1760621892.459949) can1 470#0201000000000020
(1760621892.461177) can1 271#0700000000000000
(1760621892.462440) can1 390#0100000000000000
(1760621892.463670) can1 391#0100000000000000
(1760621892.508103) can1 353#0C480DB7000008
(1760621892.548711) can1 351#00591B0010FFFF10
(1760621892.549731) can1 621#000080
(1760621892.550736) can1 408#080400000000
(1760621892.572825) can1 661#810112A000000000
(1760621892.608062) can1 353#0C480DB7000008
(1760621892.648901) can1 351#00591B0010FFFF10
(1760621892.648903) can1 551#00
(1760621892.649913) can1 621#000080
(1760621892.650917) can1 635#32640E
(1760621892.655129) can1 531#0101000000000000
(1760621892.656380) can1 393#0100000000000000
(1760621892.657610) can1 392#0100000000000000
(1760621892.658860) can1 591#0000000000000000
(1760621892.660091) can1 470#0201000000000020
(1760621892.661333) can1 271#0700000000000000
(1760621892.662571) can1 390#0100000000000000
(1760621892.663818) can1 391#0100000000000000
(1760621892.667860) can1 1A0#C8363032B988B2BD
(1760621892.708040) can1 353#0C480DB7000008
(1760621892.748999) can1 351#00591B0010FFFF10
(1760621892.749003) can1 621#000080
(1760621892.750009) can1 651#C01461002847
(1760621892.751015) can1 653#000200
(1760621892.808043) can1 353#0C480DB7000008
(1760621892.810432) can1 100#F0B0B85C7270FAD2
(1760621892.849102) can1 351#00591B0010FFFF10
(1760621892.849103) can1 551#00
(1760621892.850124) can1 621#000080
(1760621892.851121) can1 635#32640E
(1760621892.855256) can1 531#0101000000000000
(1760621892.856495) can1 393#0100000000000000
(1760621892.858510) can1 392#0100000000000000
(1760621892.859516) can1 591#0000000000000000
(1760621892.860521) can1 470#0201000000000020
(1760621892.861530) can1 390#0100000000000000
(1760621892.862685) can1 271#0700000000000000
(1760621892.863933) can1 391#0100000000000000
(1760621892.897184) can1 1A0#2B55AE8A17F963A7
(1760621892.908032) can1 353#0C480DB7000008
(1760621892.928135) can1 627#0039393939282828
(1760621892.948134) can1 351#00591B0010FFFF10
(1760621892.949144) can1 621#000080
(1760621892.959662) can1 1A0#0D611194F08D959A
(1760621893.008052) can1 353#0C480DB7000008
(1760621893.048232) can1 351#00591B0010FFFF10
(1760621893.049239) can1 551#00
(1760621893.050260) can1 408#080400000000
(1760621893.051261) can1 621#000080
(1760621893.051266) can1 635#32640E
(1760621893.055381) can1 531#0101000000000000
(1760621893.056608) can1 393#0100000000000000
(1760621893.057850) can1 392#0100000000000000
(1760621893.059102) can1 591#0000000000000000
(1760621893.060325) can1 470#0201000000000020
(1760621893.061580) can1 390#0100000000000000
(1760621893.062815) can1 271#0700000000000000
(1760621893.064063) can1 391#0100000000000000
(1760621893.073599) can1 661#810112A000000000
(1760621893.096315) can1 2B5#AFC54FEA83C15E06
(1760621893.108011) can1 353#0C480DB7000008
(1760621893.148345) can1 351#00591B0010FFFF10
(1760621893.149352) can1 621#000080
(1760621893.208610) can1 353#0C480DB7000008
(1760621893.210673) can1 1A0#C730E323E78144BF
(1760621893.248520) can1 60E#0A00
(1760621893.249526) can1 351#00591B0010FFFF10
(1760621893.249529) can1 551#00
(1760621893.250531) can1 621#000080
(1760621893.251541) can1 623#0015390817102025
(1760621893.252549) can1 635#32640E
(1760621893.253560) can1 651#C01461002847
(1760621893.254569) can1 653#000200
(1760621893.255585) can1 531#0101000000000000
(1760621893.257597) can1 393#0100000000000000
(1760621893.258604) can1 591#0000000000000000
(1760621893.259612) can1 392#0100000000000000
(1760621893.260619) can1 470#0201000000000020
(1760621893.261705) can1 390#0100000000000000
(1760621893.262934) can1 271#0700000000000000
(1760621893.264199) can1 391#0100000000000000
(1760621893.284103) can1 100#F832DFF856845528
(1760621893.308037) can1 353#0C480DB7000008
(1760621893.348619) can1 351#00591B0010FFFF10
(1760621893.349628) can1 621#000080
(1760621893.360584) can1 1A0#02329F99F152B5E8
(1760621893.408242) can1 353#0C480DB7000008
(1760621893.428107) can1 627#0039393939282828
(1760621893.437657) can1 2B5#1D61257BCA7F1F07
(1760621893.446185) can1 1A0#154A1A91CEA77E10
(1760621893.448738) can1 351#00591B0010FFFF10
(1760621893.448739) can1 551#00
(1760621893.449748) can1 621#000080
(1760621893.450754) can1 635#32640E
(1760621893.455652) can1 531#0101000000000000
(1760621893.456856) can1 393#0100000000000000
(1760621893.458101) can1 392#0100000000000000
(1760621893.459341) can1 591#0000000000000000
(1760621893.460581) can1 470#0201000000000020
(1760621893.461809) can1 271#0700000000000000
(1760621893.463057) can1 391#0100000000000000
(1760621893.464309) can1 390#0100000000000000
(1760621893.498575) can1 3C0#44333530544A3241
(1760621893.508467) can1 353#0C480DB7000008
(1760621893.509479) can1 1A0#9A1E5A4C04BEEBF6
(1760621893.548823) can1 351#00591B0010FFFF10
(1760621893.549832) can1 621#000080
(1760621893.550840) can1 408#080400000000
(1760621893.573041) can1 661#810112A000000000
(1760621893.593600) can1 1A0#D35D28AB67F7F548
(1760621893.608006) can1 353#0C480DB7000008
(1760621893.646046) can1 1A0#DF1C7BCCA2701561
(1760621893.648952) can1 351#00591B0010FFFF10
(1760621893.648953) can1 551#00
(1760621893.649959) can1 621#000080
(1760621893.650969) can1 635#32640E
(1760621893.655734) can1 531#0101000000000000
(1760621893.656970) can1 393#0100000000000000
(1760621893.658226) can1 591#0000000000000000
(1760621893.659464) can1 392#0100000000000000
(1760621893.660693) can1 470#0201000000000020
(1760621893.661928) can1 271#0700000000000000
(1760621893.663170) can1 391#0100000000000000
(1760621893.665203) can1 390#0100000000000000
(1760621893.707517) can1 1A0#1D324B45B8AAA3D5
(1760621893.709542) can1 353#0C480DB7000008
(1760621893.722450) can1 100#FE23914A763B231F
(1760621893.749053) can1 351#00591B0010FFFF10
(1760621893.749056) can1 621#000080
(1760621893.750064) can1 651#C01461002847
(1760621893.751069) can1 653#000200
(1760621893.802231) can1 1A0#9152DF62D13631FE
(1760621893.807977) can1 353#0C480DB7000008
(1760621893.848063) can1 351#00591B0010FFFF10
(1760621893.849073) can1 551#00
(1760621893.850077) can1 621#000080
(1760621893.851087) can1 635#32640E
(1760621893.855862) can1 531#0101000000000000
(1760621893.857098) can1 393#0100000000000000
(1760621893.858367) can1 591#0000000000000000
(1760621893.859587) can1 392#0100000000000000
(1760621893.860822) can1 470#0201000000000020
(1760621893.862068) can1 271#0700000000000000
(1760621893.863308) can1 391#0100000000000000
(1760621893.864549) can1 390#0100000000000000
(1760621893.907962) can1 353#0C480DB7000008
(1760621893.928113) can1 627#0039393939282828
(1760621893.948524) can1 351#00591B0010FFFF10
(1760621893.949532) can1 621#000080
(1760621893.992834) can1 1A0#B63158F51569AA24
(1760621894.008009) can1 353#0C480DB7000008
(1760621894.048867) can1 351#00591B0010FFFF10
(1760621894.048868) can1 551#00
(1760621894.049875) can1 408#080400000000
(1760621894.050885) can1 621#000080
(1760621894.051889) can1 635#32640E
(1760621894.056094) can1 531#0101000000000000
(1760621894.057322) can1 393#0100000000000000
(1760621894.058573) can1 591#0000000000000000
(1760621894.059809) can1 392#0100000000000000
(1760621894.061040) can1 470#0201000000000020
(1760621894.063060) can1 271#0700000000000000
(1760621894.064066) can1 391#0100000000000000
(1760621894.065074) can1 390#0100000000000000
(1760621894.073151) can1 661#810112A000000000
(1760621894.076883) can1 2B5#027E19C7AFCC98F5
(1760621894.107995) can1 353#0C480DB7000008
(1760621894.148816) can1 351#00591B0010FFFF10
(1760621894.149814) can1 621#000080
(1760621894.166380) can1 100#267108E32D4B4125
(1760621894.207944) can1 353#0C480DB7000008
(1760621894.247508) can1 60E#0A00
(1760621894.249524) can1 351#00591B0010FFFF10
(1760621894.249527) can1 551#00
(1760621894.250539) can1 621#000080
(1760621894.251546) can1 623#0015390917102025
(1760621894.252553) can1 635#32640E
(1760621894.253572) can1 651#C01461002847
(1760621894.254571) can1 1A0#701E455932BB9FC3
(1760621894.255594) can1 653#000200
(1760621894.256604) can1 531#0101000000000000
(1760621894.257613) can1 393#0100000000000000
(1760621894.258747) can1 591#0000000000000000
(1760621894.259964) can1 392#0100000000000000
(1760621894.261197) can1 470#0201000000000020
(1760621894.262445) can1 271#0700000000000000
(1760621894.263678) can1 391#0100000000000000
(1760621894.264925) can1 390#0100000000000000
(1760621894.307953) can1 353#0C480DB7000008
(1760621894.348826) can1 351#00591B0010FFFF10
(1760621894.349825) can1 621#000080
(1760621894.407954) can1 353#0C480DB7000008
(1760621894.428049) can1 627#0039393939282828
(1760621894.448831) can1 351#00591B0010FFFF10
(1760621894.448833) can1 551#00
(1760621894.449832) can1 621#000080
(1760621894.450849) can1 635#32640E
(1760621894.456413) can1 531#0101000000000000
(1760621894.457654) can1 393#0100000000000000
(1760621894.458928) can1 591#0000000000000000
(1760621894.460145) can1 392#0100000000000000
(1760621894.461367) can1 470#0201000000000020
(1760621894.462617) can1 271#0700000000000000
(1760621894.463850) can1 391#0100000000000000
(1760621894.465095) can1 390#0100000000000000
(1760621894.506008) can1 1A0#45494FE42FEB1D41
(1760621894.507961) can1 353#0D480DB7000009
(1760621894.523504) can1 3C0#57394E5258535530
(1760621894.527960) can1 353#0C480DB7000008
(1760621894.548798) can1 351#00591B0010FFFF10
(1760621894.548799) can1 621#000080
(1760621894.550816) can1 408#080400000000
(1760621894.573237) can1 661#810112A000000000
(1760621894.627908) can1 353#0C480DB7000008
(1760621894.648792) can1 351#00591B0010FFFF10
(1760621894.648793) can1 551#00
(1760621894.649805) can1 621#000080
(1760621894.650807) can1 635#32640E
(1760621894.656592) can1 531#0101000000000000
(1760621894.657820) can1 393#0100000000000000
(1760621894.659069) can1 591#0000000000000000
(1760621894.660315) can1 392#0100000000000000
(1760621894.661542) can1 470#0201000000000020
(1760621894.662775) can1 271#0700000000000000
(1760621894.664024) can1 391#0100000000000000
(1760621894.665268) can1 390#0100000000000000
(1760621894.727971) can1 353#0C480DB7000008
(1760621894.737368) can1 1A0#6E5CEC5D91C96A83
(1760621894.743721) can1 100#BE5D1C1F3D01B5C3
(1760621894.748994) can1 351#00591B0010FFFF10
(1760621894.749000) can1 621#000080
(1760621894.750006) can1 651#C01461002847
(1760621894.751012) can1 653#000200
(1760621894.816010) can1 1A0#E00BEE5F833CC78B
(1760621894.827976) can1 353#0C480DB7000008
(1760621894.848855) can1 351#00591B0010FFFF10
(1760621894.848857) can1 551#00
(1760621894.849856) can1 621#000080
(1760621894.850866) can1 635#32640E
(1760621894.856741) can1 531#0101000000000000
(1760621894.857996) can1 393#0100000000000000
(1760621894.859236) can1 591#0000000000000000
(1760621894.861253) can1 392#0100000000000000
(1760621894.862263) can1 470#0201000000000020
(1760621894.863281) can1 271#0700000000000000
(1760621894.864283) can1 391#0100000000000000
(1760621894.865431) can1 390#0100000000000000
(1760621894.866553) can1 2B5#AFC531A958CC9AAB
(1760621894.927932) can1 353#0C480DB7000008
(1760621894.929944) can1 627#0039393939282828
(1760621894.948755) can1 351#00591B0010FFFF10
(1760621894.949764) can1 621#000080
(1760621894.963116) can1 1A0#3B1361FDF4447EEC
(1760621894.985214) can1 100#E511D4255C584BC1
(1760621895.027888) can1 353#0C480DB7000008
(1760621895.048789) can1 351#00591B0010FFFF10
(1760621895.048790) can1 551#00
(1760621895.049801) can1 408#080400000000
(1760621895.050808) can1 621#000080
(1760621895.051811) can1 635#32640E
(1760621895.056928) can1 393#0100000000000000
(1760621895.058167) can1 531#0101000000000000
(1760621895.059431) can1 591#0000000000000000
(1760621895.060668) can1 392#0100000000000000
(1760621895.061887) can1 470#0201000000000020
(1760621895.063120) can1 271#0700000000000000
(1760621895.064378) can1 391#0100000000000000
(1760621895.065617) can1 390#0100000000000000
(1760621895.066763) can1 3C0#394A36393238385A
(1760621895.073364) can1 661#810112A000000000
(1760621895.104020) can1 1A0#B037637504125985
(1760621895.127903) can1 353#0C480DB7000008
(1760621895.148742) can1 351#00591B0010FFFF10
(1760621895.149744) can1 621#000080
(1760621895.227906) can1 353#0C480DB7000008
(1760621895.229924) can1 100#6B6A9D17576250CE
(1760621895.247464) can1 60E#0A00
(1760621895.249499) can1 351#00591B0010FFFF10
(1760621895.249503) can1 551#00
(1760621895.250502) can1 621#000080
(1760621895.251502) can1 623#0015391017102025
(1760621895.252513) can1 635#32640E
(1760621895.253526) can1 651#C01461002847
(1760621895.254533) can1 653#000200
(1760621895.257848) can1 531#0101000000000000
(1760621895.258875) can1 393#0100000000000000
(1760621895.259875) can1 591#0000000000000000
(1760621895.260881) can1 392#0100000000000000
(1760621895.262046) can1 470#0201000000000020
(1760621895.263261) can1 271#0700000000000000
(1760621895.264509) can1 391#0100000000000000
(1760621895.265760) can1 390#0100000000000000
(1760621895.266906) can1 1A0#C9414C444A3DDFC1
(1760621895.327894) can1 353#0C480DB7000008
(1760621895.348935) can1 351#00591B0010FFFF10
(1760621895.348936) can1 621#000080
(1760621895.427883) can1 353#0C480DB7000008
(1760621895.429892) can1 627#0039393939282828
(1760621895.448741) can1 351#00591B0010FFFF10
(1760621895.448744) can1 551#00
(1760621895.449763) can1 621#000080
(1760621895.450762) can1 635#32640E
(1760621895.457259) can1 531#0101000000000000
(1760621895.458510) can1 393#0100000000000000
(1760621895.459725) can1 392#0100000000000000
(1760621895.460977) can1 591#0000000000000000
(1760621895.462225) can1 470#0201000000000020
(1760621895.463432) can1 271#0700000000000000
(1760621895.464694) can1 391#0100000000000000
(1760621895.465933) can1 390#0100000000000000
(1760621895.527937) can1 353#0C480DB7000008
(1760621895.546139) can1 1A0#0E068254F8EFA238
(1760621895.548718) can1 351#00591B0010FFFF10
(1760621895.549732) can1 621#000080
(1760621895.550742) can1 408#080400000000
(1760621895.564140) can1 2B5#6A6C206B55BF9AB0
(1760621895.573478) can1 661#810112A000000000
(1760621895.627897) can1 353#0C480DB7000008
(1760621895.648775) can1 351#00591B0010FFFF10
(1760621895.648777) can1 551#00
(1760621895.649783) can1 621#000080
(1760621895.650802) can1 635#32640E
(1760621895.657402) can1 531#0101000000000000
(1760621895.658645) can1 393#0100000000000000
(1760621895.659895) can1 591#0000000000000000
(1760621895.661126) can1 392#0100000000000000
(1760621895.662361) can1 470#0201000000000020
(1760621895.663588) can1 271#0700000000000000
(1760621895.664841) can1 391#0100000000000000
(1760621895.666105) can1 390#0100000000000000
(1760621895.681897) can1 1A0#A212E204B02BC337
(1760621895.727878) can1 353#0C480DB7000008
(1760621895.746132) can1 100#659836A0BF6F2A1E
(1760621895.748956) can1 351#00591B0010FFFF10
(1760621895.748959) can1 621#000080
(1760621895.749955) can1 651#C01461002847
(1760621895.750966) can1 653#000200
(1760621895.766558) can1 1A0#421514B69349FEBE
(1760621895.827840) can1 353#0C480DB7000008
(1760621895.848738) can1 351#00591B0010FFFF10
(1760621895.848740) can1 551#00
(1760621895.849747) can1 621#000080
(1760621895.850755) can1 635#32640E
(1760621895.857577) can1 531#0101000000000000
(1760621895.858808) can1 393#0100000000000000
(1760621895.860079) can1 591#0000000000000000
(1760621895.861304) can1 392#0100000000000000
(1760621895.863318) can1 470#0201000000000020
(1760621895.864326) can1 271#0700000000000000
(1760621895.865335) can1 390#0100000000000000
(1760621895.866343) can1 391#0100000000000000
(1760621895.877928) can1 1A0#213A15536D3088E2
(1760621895.928811) can1 353#0C480DB7000008
(1760621895.929819) can1 627#0039393939282828
(1760621895.939757) can1 1A0#A6023749A472C01D
(1760621895.948683) can1 351#00591B0010FFFF10
(1760621895.949696) can1 621#000080
(1760621896.027853) can1 353#0C480DB7000008
(1760621896.048696) can1 351#00591B0010FFFF10
(1760621896.048698) can1 551#00
(1760621896.049707) can1 408#080400000000
(1760621896.050714) can1 621#000080
(1760621896.051727) can1 635#32640E
(1760621896.056317) can1 1A0#1963FDC4475D73F4
(1760621896.057752) can1 531#0101000000000000
(1760621896.058959) can1 393#0100000000000000
(1760621896.060197) can1 392#0100000000000000
(1760621896.061453) can1 591#0000000000000000
(1760621896.062677) can1 470#0201000000000020
(1760621896.063916) can1 271#0700000000000000
(1760621896.065167) can1 390#0100000000000000
(1760621896.066416) can1 391#0100000000000000
(1760621896.073609) can1 661#810112A000000000
(1760621896.128055) can1 353#0C480DB7000008
(1760621896.139172) can1 100#5ECD86C32BF15890
(1760621896.148684) can1 351#00591B0010FFFF10
(1760621896.148686) can1 621#000080
(1760621896.227820) can1 353#0C480DB7000008
(1760621896.239098) can1 1A0#A75026433B0E0659
(1760621896.247395) can1 60E#0A00
(1760621896.249410) can1 351#00591B0010FFFF10
(1760621896.249413) can1 551#00
(1760621896.250431) can1 621#000080
(1760621896.251430) can1 623#0015391117102025
(1760621896.252440) can1 635#32640E
(1760621896.253448) can1 651#C01461002847
(1760621896.254452) can1 653#000200
(1760621896.257934) can1 531#0101000000000000
(1760621896.259182) can1 393#0100000000000000
(1760621896.260433) can1 591#0000000000000000
(1760621896.261679) can1 392#0100000000000000
(1760621896.262900) can1 470#0201000000000020
(1760621896.264138) can1 271#0700000000000000
(1760621896.265371) can1 390#0100000000000000
(1760621896.266650) can1 391#0100000000000000
(1760621896.272434) can1 2B5#9D1D5A7C09AF393E
(1760621896.327874) can1 353#0C480DB7000008
(1760621896.348682) can1 351#00591B0010FFFF10
(1760621896.349685) can1 621#000080
(1760621896.417412) can1 3C0#3652324259344243
(1760621896.427843) can1 353#0C480DB7000008
(1760621896.429865) can1 627#0039393939282828
(1760621896.448746) can1 351#00591B0010FFFF10
(1760621896.448747) can1 551#00
(1760621896.449761) can1 621#000080
(1760621896.450764) can1 635#32640E
(1760621896.458116) can1 531#0101000000000000
(1760621896.459375) can1 393#0100000000000000
(1760621896.460607) can1 591#0000000000000000
(1760621896.461849) can1 392#0100000000000000
(1760621896.463079) can1 470#0201000000000020
(1760621896.464313) can1 271#0700000000000000
(1760621896.465563) can1 390#0100000000000000
(1760621896.466813) can1 391#0100000000000000
(1760621896.467938) can1 1A0#9A171FEE43DF126D
(1760621896.527828) can1 353#0C480DB7000008
(1760621896.548694) can1 351#00591B0010FFFF10
(1760621896.548696) can1 621#000080
(1760621896.550697) can1 408#080400000000
(1760621896.573705) can1 661#810112A000000000
(1760621896.627798) can1 353#0C480DB7000008
(1760621896.637073) can1 2B5#387B39A576549A7E
(1760621896.647906) can1 351#00591B0010FFFF10
(1760621896.648915) can1 551#00
(1760621896.649928) can1 621#000080
(1760621896.650949) can1 635#32640E
(1760621896.658296) can1 393#0100000000000000
(1760621896.659540) can1 531#0101000000000000
(1760621896.660773) can1 591#0000000000000000
(1760621896.662022) can1 392#0100000000000000
(1760621896.663239) can1 470#0201000000000020
(1760621896.664479) can1 271#0700000000000000
(1760621896.665604) can1 100#75AF57A919292E58
(1760621896.666854) can1 390#0100000000000000
(1760621896.668095) can1 391#0100000000000000
(1760621896.688620) can1 1A0#1C041E6FC406E9C9
(1760621896.727829) can1 353#0C480DB7000008
(1760621896.748860) can1 351#00591B0010FFFF10
(1760621896.748863) can1 621#000080
(1760621896.749866) can1 651#C01461002847
(1760621896.750878) can1 653#000200
(1760621896.827812) can1 353#0C480DB7000008
(1760621896.848674) can1 351#00591B0010FFFF10
(1760621896.848676) can1 551#00
(1760621896.849682) can1 621#000080
(1760621896.850689) can1 635#32640E
(1760621896.858495) can1 393#0100000000000000
(1760621896.859713) can1 531#0101000000000000
(1760621896.860942) can1 591#0000000000000000
(1760621896.862190) can1 392#0100000000000000
(1760621896.863407) can1 470#0201000000000020
(1760621896.864654) can1 271#0700000000000000
(1760621896.865904) can1 390#0100000000000000
(1760621896.867145) can1 391#0100000000000000
(1760621896.923741) can1 100#AD90E066971EF2C7
(1760621896.927801) can1 353#0C480DB7000008
(1760621896.929819) can1 627#0039393939282828
(1760621896.948637) can1 351#00591B0010FFFF10
(1760621896.948639) can1 621#000080
(1760621896.982982) can1 1A0#4715DB1497CBEF03
(1760621897.004365) can1 2B5#A9D31783B7067B74
(1760621897.027779) can1 353#0C480DB7000008
(1760621897.048653) can1 351#00591B0010FFFF10
(1760621897.048654) can1 551#00
(1760621897.049664) can1 408#080400000000
(1760621897.050674) can1 621#000080
(1760621897.051685) can1 635#32640E
(1760621897.058624) can1 393#0100000000000000
(1760621897.059883) can1 531#0101000000000000
(1760621897.061102) can1 392#0100000000000000
(1760621897.062368) can1 591#0000000000000000
(1760621897.063595) can1 470#0201000000000020
(1760621897.064814) can1 271#0700000000000000
(1760621897.066095) can1 390#0100000000000000
(1760621897.067310) can1 391#0100000000000000
(1760621897.073849) can1 661#810112A000000000
(1760621897.127818) can1 353#0C480DB7000008
(1760621897.146443) can1 1A0#C843ED90C3703235
(1760621897.148658) can1 351#00591B0010FFFF10
(1760621897.148659) can1 621#000080
(1760621897.227788) can1 353#0C480DB7000008
(1760621897.247395) can1 60E#0A00
(1760621897.249413) can1 351#00591B0010FFFF10
(1760621897.249416) can1 551#00
(1760621897.250426) can1 621#000080
(1760621897.251434) can1 623#0015391217102025
(1760621897.252446) can1 635#32640E
(1760621897.253459) can1 651#C01461002847
(1760621897.254483) can1 653#000200
(1760621897.258782) can1 393#0100000000000000
(1760621897.260026) can1 591#0000000000000000
(1760621897.261278) can1 531#0101000000000000
(1760621897.262516) can1 392#0100000000000000
(1760621897.263739) can1 470#0201000000000020
(1760621897.264981) can1 271#0700000000000000
(1760621897.266231) can1 390#0100000000000000
(1760621897.267480) can1 391#0100000000000000
(1760621897.309859) can1 100#242B710BDFB302E4
(1760621897.327753) can1 353#0C480DB7000008
(1760621897.348616) can1 351#00591B0010FFFF10
(1760621897.348617) can1 621#000080
(1760621897.380212) can1 1A0#2B32E98C67C76693
(1760621897.427750) can1 353#0C480DB7000008
(1760621897.429773) can1 627#0039393939282828
(1760621897.448616) can1 351#00591B0010FFFF10
(1760621897.448618) can1 551#00
(1760621897.449620) can1 621#000080
(1760621897.450626) can1 2B5#73933FE4AD3BFA92
(1760621897.451632) can1 635#32640E
(1760621897.459071) can1 591#0000000000000000
(1760621897.460308) can1 393#0100000000000000
(1760621897.461547) can1 531#0101000000000000
(1760621897.462789) can1 392#0100000000000000
(1760621897.464021) can1 470#0201000000000020
(1760621897.465254) can1 271#0700000000000000
(1760621897.466496) can1 390#0100000000000000
(1760621897.467743) can1 391#0100000000000000
(1760621897.527785) can1 353#0C480DB7000008
(1760621897.548589) can1 351#00591B0010FFFF10
