(1760621879.898399) can2 271#07
(1760621879.909834) can2 353#0C480DB7000008
(1760621879.927244) can2 263#4F4B353231202020
(1760621879.928395) can2 261#54454D5038363820
(1760621879.930425) can2 1A6#090550BE5C99D8FB
(1760621879.931426) can2 627#0039393939282828
(1760621879.948677) can2 621#000080
(1760621879.950704) can2 351#00591B0010FFFF10
(1760621879.951709) can2 0B4#FB164ADA0CA3CAD2
(1760621879.957959) can2 0F7#88485694906F5363
(1760621879.970066) can2 0A0#5E673A465CB5293A
(1760621879.976517) can2 07D#5859978CCB55C47F
(1760621879.981622) can2 4B0#4552523438353120
(1760621879.984386) can2 2F1#0500D933395EE1C5
(1760621879.989816) can2 353#0D480DB7000009
(1760621879.998371) can2 271#07
(1760621880.009863) can2 353#0C480DB7000008
(1760621880.027398) can2 263#4B482B2B3C287520
(1760621880.028557) can2 261#F8F98AF9816D5730
(1760621880.039058) can2 428#080400000000
(1760621880.049182) can2 621#000080
(1760621880.050184) can2 351#00591B0010FFFF10
(1760621880.051192) can2 635#32640E
(1760621880.055222) can2 3FF#C4FA1543C99D71BE
(1760621880.062405) can2 0F7#A8085DAA4C16045D
(1760621880.068650) can2 661#810112A000000000
(1760621880.098383) can2 271#07
(1760621880.109810) can2 353#0C480DB7000008
(1760621880.127614) can2 263#4F4B373634202020
(1760621880.128719) can2 261#62620475B98B96E1
(1760621880.148639) can2 621#000080
(1760621880.150652) can2 351#00591B0010FFFF10
(1760621880.198339) can2 271#07
(1760621880.200189) can2 18F#B2E3006B544CE113
(1760621880.209780) can2 353#0C480DB7000008
(1760621880.221156) can2 0F7#7BA160902B26E816
(1760621880.227788) can2 263#54454D5038323220
(1760621880.228919) can2 261#4E4F495345333534
(1760621880.243568) can2 0B4#588F150098B8B7CF
(1760621880.249318) can2 60E#0A00
(1760621880.250320) can2 651#C01461002847
(1760621880.251329) can2 351#00591B0010FFFF10
(1760621880.252334) can2 621#000080
(1760621880.253344) can2 623#0015385517102025
(1760621880.254352) can2 635#32640E
(1760621880.254356) can2 653#000200
(1760621880.274070) can2 0A0#A6A5B49AA05B4E2F
(1760621880.275237) can2 0C8#440E77AC3D9D664E
(1760621880.298354) can2 271#07
(1760621880.305747) can2 3FF#53454E3339332020
(1760621880.309799) can2 353#0C480DB7000008
(1760621880.321635) can2 0F7#5330A203424C5ED8
(1760621880.327954) can2 263#54454D5036333420
(1760621880.329071) can2 261#A109C467F8CC6DF2
(1760621880.337850) can2 4B0#4254333136302020
(1760621880.348602) can2 621#000080
(1760621880.350620) can2 351#00591B0010FFFF10
(1760621880.361401) can2 1A6#07E065BB826458A0
(1760621880.378373) can2 18F#27A40037B1D3A69E
(1760621880.398333) can2 271#07
(1760621880.409798) can2 353#0C480DB7000008
(1760621880.428160) can2 263#2A09469BF5D3A0D0
(1760621880.430176) can2 261#B62405FC870FC311
(1760621880.431202) can2 3E8#334E48355A4C4639
(1760621880.432202) can2 627#0039393939282828
(1760621880.437907) can2 0A0#74463A195B8B43AF
(1760621880.449427) can2 621#000080
(1760621880.450457) can2 351#00591B0010FFFF10
(1760621880.451455) can2 635#32640E
(1760621880.466156) can2 0F7#9DB25D162F60FEF8
(1760621880.476855) can2 07D#0A6A30B614A6140C
(1760621880.477987) can2 2F1#02012551E766B2B7
(1760621880.495580) can2 4B0#4552523530303120
(1760621880.498360) can2 271#07
(1760621880.509813) can2 353#0C480DB7000008
(1760621880.516490) can2 0A0#1F4F7FFC3A1F1938
(1760621880.520048) can2 0B4#487CE4063914BF15
(1760621880.528081) can2 07D#970E6F5DAB6AFD48
(1760621880.529206) can2 263#4B482B2B3C287520
(1760621880.530335) can2 261#3B49733C2B454725
(1760621880.539002) can2 428#080400000000
(1760621880.548600) can2 621#000080
(1760621880.550621) can2 351#00591B0010FFFF10
(1760621880.565917) can2 4B0#4552523633353620
(1760621880.568792) can2 661#810112A000000000
(1760621880.576589) can2 07D#3C4C1364326B4423
(1760621880.598338) can2 271#07
(1760621880.602504) can2 0F7#33290A17960BA8A3
(1760621880.609780) can2 353#0C480DB7000008
(1760621880.613086) can2 0B4#E3B8F3D8DD6D8507
(1760621880.618213) can2 3FF#776F4DA6733E108D
(1760621880.628483) can2 263#4F4B343820202020
(1760621880.629596) can2 261#4B11C2C64A13B82A
(1760621880.649548) can2 621#000080
(1760621880.650560) can2 351#00591B0010FFFF10
(1760621880.650562) can2 635#32640E
(1760621880.684975) can2 0C8#A1029A9337254CDC
(1760621880.698344) can2 271#07
(1760621880.709787) can2 353#0C480DB7000008
(1760621880.713724) can2 1A6#0F64460DBC91596F
(1760621880.720700) can2 18F#C7A803475A92297A
(1760621880.721857) can2 0F7#11006F9431B4D416
(1760621880.728662) can2 263#53454E3630392020
(1760621880.729755) can2 261#77A797125913AE2D
(1760621880.748845) can2 651#C01461002847
(1760621880.749847) can2 621#000080
(1760621880.750854) can2 351#00591B0010FFFF10
(1760621880.751857) can2 653#000200
(1760621880.756815) can2 200#720DAE007F62BF66
(1760621880.768391) can2 3FF#049D3DD8C2B157F2
(1760621880.787930) can2 0B4#9AFCE157EF6EE2CC
(1760621880.798326) can2 271#07
(1760621880.809796) can2 353#0C480DB7000008
(1760621880.812022) can2 0A0#ADF62B8287912BC1
(1760621880.828824) can2 263#E3433D92091802A6
(1760621880.829976) can2 261#54454D5031323620
(1760621880.831139) can2 0F7#64A60F60F5EF1A88
(1760621880.833536) can2 07D#1EB71E05B82E4F0C
(1760621880.848627) can2 621#000080
(1760621880.850648) can2 351#00591B0010FFFF10
(1760621880.850653) can2 635#32640E
(1760621880.898385) can2 271#07
(1760621880.908876) can2 353#0C480DB7000008
(1760621880.910893) can2 0B4#A36D34C85923497D
(1760621880.929854) can2 627#0039393939282828
(1760621880.930854) can2 263#30370480A5761093
(1760621880.931862) can2 261#4F4B393938202020
(1760621880.948606) can2 621#000080
(1760621880.950613) can2 351#00591B0010FFFF10
(1760621880.979742) can2 1A6#04E965F64720555A
(1760621880.987708) can2 0F7#B40B316A06724F98
(1760621880.994587) can2 0C8#4D16745B3463FDFD
(1760621880.998318) can2 271#07
(1760621881.009740) can2 353#0C480DB7000008
(1760621881.021734) can2 2F1#0004D728D7D1470C
(1760621881.029139) can2 263#4B482B2B3C287520
(1760621881.030270) can2 261#53454E3236372020
(1760621881.038985) can2 428#080400000000
(1760621881.048612) can2 621#000080
(1760621881.050614) can2 351#00591B0010FFFF10
(1760621881.050619) can2 635#32640E
(1760621881.068921) can2 661#810112A000000000
(1760621881.070053) can2 4B0#4C4F473632353320
(1760621881.098321) can2 271#07
(1760621881.109750) can2 353#0C480DB7000008
(1760621881.129330) can2 263#53454E3437312020
(1760621881.130452) can2 261#B8896A345D463FEE
(1760621881.131596) can2 0F7#3F668593E14B74B7
(1760621881.134171) can2 18F#9E5E01D3479BBDEA
(1760621881.148568) can2 621#000080
(1760621881.150616) can2 07D#5EF1FACCD31B08C3
(1760621881.151618) can2 351#00591B0010FFFF10
(1760621881.155264) can2 0B4#11D3B0C3DAC6149A
(1760621881.186891) can2 3FF#9C6F2A851CA6D945
(1760621881.198328) can2 271#07
(1760621881.209770) can2 353#0C480DB7000008
(1760621881.221341) can2 18F#345903765754DD4F
(1760621881.229498) can2 263#B440CEF3C57A14FF
(1760621881.230631) can2 261#53454E3532352020
(1760621881.248697) can2 60E#0A00
(1760621881.249706) can2 651#C01461002847
(1760621881.250716) can2 351#00591B0010FFFF10
(1760621881.251723) can2 621#000080
(1760621881.252728) can2 623#0015385617102025
(1760621881.253751) can2 635#32640E
(1760621881.254747) can2 653#000200
(1760621881.257904) can2 1A6#0D865EFB01447840
(1760621881.297414) can2 0F7#7A44BC9F98B18200
(1760621881.298800) can2 0C8#98557A1FE7C71C15
(1760621881.299809) can2 271#07
(1760621881.308201) can2 0A0#AC6340300C8FE3CA
(1760621881.310218) can2 353#0C480DB7000008
(1760621881.329691) can2 263#5A05FF94F0A08440
(1760621881.331791) can2 261#655CFC0413AF3505
(1760621881.348557) can2 621#000080
(1760621881.350571) can2 351#00591B0010FFFF10
(1760621881.371506) can2 07D#F1FDEDDF9D739339
(1760621881.398294) can2 271#07
(1760621881.409755) can2 353#0C480DB7000008
(1760621881.429881) can2 627#0039393939282828
(1760621881.430881) can2 263#F4F70C38E31A673A
(1760621881.431887) can2 261#E91A1583D3BDDB4F
(1760621881.432896) can2 0F7#2F085861D41CCCF6
(1760621881.435167) can2 2F1#02050D46A6FE5A07
(1760621881.448815) can2 621#000080
(1760621881.449826) can2 351#00591B0010FFFF10
(1760621881.450835) can2 635#32640E
(1760621881.486159) can2 0B4#57FAD6F4997E57A6
(1760621881.492210) can2 18F#6F9E01C037C278DD
(1760621881.498281) can2 271#07
(1760621881.509741) can2 353#0C480DB7000008
(1760621881.530012) can2 261#16A3E069CBE4523B
(1760621881.531137) can2 263#EC3F540B0E3BAF29
(1760621881.538943) can2 428#080400000000
(1760621881.548780) can2 0F7#58C4C11A85765FCE
(1760621881.550796) can2 351#00591B0010FFFF10
(1760621881.550801) can2 621#000080
(1760621881.569043) can2 661#810112A000000000
(1760621881.587738) can2 4B0#4552523938323120
(1760621881.598272) can2 271#07
(1760621881.607218) can2 3FF#53B299AADA0BC116
(1760621881.609765) can2 353#0C480DB7000008
(1760621881.622804) can2 2F1#0201104898EB986D
(1760621881.630217) can2 263#7F2CB51D52941E3F
(1760621881.631392) can2 261#53454E3435382020
(1760621881.648910) can2 621#000080
(1760621881.649923) can2 351#00591B0010FFFF10
(1760621881.650933) can2 1A6#0C474BA4B975A94C
(1760621881.652948) can2 200#5DABA641B56B56F2
(1760621881.652954) can2 635#32640E
(1760621881.654975) can2 0C8#CF3BF34B3F9B0B38
(1760621881.689743) can2 0F7#084B59B54052EFF3
(1760621881.698824) can2 4B0#4C4F473238393020
(1760621881.699853) can2 271#07
(1760621881.709706) can2 353#0C480DB7000008
(1760621881.730331) can2 261#EAF495271B3C76BD
(1760621881.731498) can2 263#32E240D894984D6F
(1760621881.748749) can2 651#C01461002847
(1760621881.749774) can2 621#000080
(1760621881.750775) can2 07D#83713AA1E63C9C52
(1760621881.752778) can2 351#00591B0010FFFF10
(1760621881.752782) can2 653#000200
(1760621881.768071) can2 2F1#0605164362C6B65A
(1760621881.797969) can2 07D#A6C4302E0BE32787
(1760621881.798979) can2 271#07
(1760621881.809699) can2 353#0C480DB7000008
(1760621881.810707) can2 0F7#BD393C57D280AC0A
(1760621881.830552) can2 261#D87616E18CC1536C
(1760621881.831653) can2 263#E42488251ED73347
(1760621881.836372) can2 0B4#82C3DAF6066D9BB7
(1760621881.843228) can2 0A0#0F05E5EDBA57A92D
(1760621881.849032) can2 621#000080
(1760621881.850042) can2 351#00591B0010FFFF10
(1760621881.851049) can2 635#32640E
(1760621881.898248) can2 271#07
(1760621881.909700) can2 353#0C480DB7000008
(1760621881.929797) can2 627#0039393939282828
(1760621881.930807) can2 263#25CC47BAF3BCA5E5
(1760621881.931839) can2 261#8BC3F1CABFBC50B0
(1760621881.943087) can2 0F7#C43711C6D66B95B0
(1760621881.944222) can2 0C8#DA56A46D75AD0123
(1760621881.948537) can2 621#000080
(1760621881.950560) can2 351#00591B0010FFFF10
(1760621881.983912) can2 18F#18200272D5987D73
(1760621881.998250) can2 271#07
(1760621882.009703) can2 353#0C480DB7000008
(1760621882.030895) can2 261#4E4F495345353134
(1760621882.032044) can2 263#53454E3730392020
(1760621882.038916) can2 428#080400000000
(1760621882.049193) can2 621#000080
(1760621882.050206) can2 351#00591B0010FFFF10
(1760621882.051214) can2 635#32640E
(1760621882.069176) can2 661#810112A000000000
(1760621882.074915) can2 0F7#367B810F19C766E7
(1760621882.086123) can2 1A6#08F74E10977EEEB2
(1760621882.098231) can2 271#07
(1760621882.103417) can2 0A0#F8DE28AD6509213F
(1760621882.109672) can2 353#0C480DB7000008
(1760621882.111917) can2 2F1#0203EE603ED6F6F8
(1760621882.131145) can2 263#6A8217FE9E872586
(1760621882.132240) can2 261#4E4F495345373439
(1760621882.148503) can2 621#000080
(1760621882.150524) can2 351#00591B0010FFFF10
(1760621882.165102) can2 3FF#A04404F9AE527F36
(1760621882.198259) can2 271#07
(1760621882.209709) can2 353#0C480DB7000008
(1760621882.211299) can2 3FF#B682AC1DFBF055C3
(1760621882.218525) can2 200#4E4F495345373039
(1760621882.231278) can2 261#05253C1DB3793926
(1760621882.232387) can2 263#4F4B313332202020
(1760621882.249263) can2 60E#0A00
(1760621882.250276) can2 651#C01461002847
(1760621882.251282) can2 351#00591B0010FFFF10
(1760621882.252303) can2 621#000080
(1760621882.253305) can2 623#0015385717102025
(1760621882.253307) can2 635#32640E
(1760621882.255317) can2 0F7#8C1F6E3DF502B8D5
(1760621882.255322) can2 653#000200
(1760621882.294379) can2 4B0#4254363734382020
(1760621882.298234) can2 271#07
(1760621882.309710) can2 353#0C480DB7000008
(1760621882.331444) can2 263#4B482B2B3C287520
(1760621882.332594) can2 261#4F4B363638202020
(1760621882.348557) can2 621#000080
(1760621882.350602) can2 351#00591B0010FFFF10
(1760621882.380483) can2 07D#8F676A4F9C0167EE
(1760621882.390683) can2 0F7#AB4FB250F329B253
(1760621882.396473) can2 0C8#DA0952CDEA187B7D
(1760621882.398257) can2 271#07
(1760621882.402314) can2 3E8#454D415433343838
(1760621882.405142) can2 1A6#0D0E5AB950874FB3
(1760621882.409701) can2 353#0C480DB7000008
(1760621882.413642) can2 0B4#855D035CE5C0028D
(1760621882.429789) can2 627#0039393939282828
(1760621882.431648) can2 263#7014125D1D7F1529
(1760621882.432764) can2 261#50494E4735323720
(1760621882.449384) can2 621#000080
(1760621882.450393) can2 351#00591B0010FFFF10
(1760621882.451397) can2 635#32640E
(1760621882.490777) can2 3FF#4833A27C1CF7244E
(1760621882.498257) can2 271#07
(1760621882.509662) can2 353#0C480DB7000008
(1760621882.531797) can2 261#D64CDAFB88897CD4
(1760621882.532920) can2 263#74A6BC9B0C2D709B
(1760621882.538902) can2 428#080400000000
(1760621882.548476) can2 621#000080
(1760621882.550503) can2 351#00591B0010FFFF10
(1760621882.551511) can2 0F7#BB107C349B90D3EC
(1760621882.569288) can2 661#810112A000000000
(1760621882.577291) can2 18F#62300231D4B75747
(1760621882.582350) can2 0B4#3A19252420A243B6
(1760621882.598238) can2 271#07
(1760621882.604341) can2 2F1#0403736E9A0344B3
(1760621882.609656) can2 353#0C480DB7000008
(1760621882.610668) can2 200#165F5216A046EC84
(1760621882.631995) can2 263#4F4B323837202020
(1760621882.633104) can2 261#B8BA376657D38149
(1760621882.648530) can2 621#000080
(1760621882.649702) can2 351#00591B0010FFFF10
(1760621882.650709) can2 635#32640E
(1760621882.668895) can2 0A0#FDAF7A630DFD86DA
(1760621882.698214) can2 271#07
(1760621882.709652) can2 353#0C480DB7000008
(1760621882.717105) can2 0F7#B9B1225359B3EF2E
(1760621882.718281) can2 1A6#02A84DA078FF0031
(1760621882.732155) can2 261#4E4F444533323220
(1760621882.733271) can2 263#2ABDA29B7843895B
(1760621882.743584) can2 18F#AC48000FD6993F70
(1760621882.748715) can2 651#C01461002847
(1760621882.749714) can2 621#000080
(1760621882.750722) can2 351#00591B0010FFFF10
(1760621882.751736) can2 653#000200
(1760621882.780871) can2 2F1#0605806E5BB74296
(1760621882.798214) can2 271#07
(1760621882.802978) can2 0B4#1500099F933D0FFF
(1760621882.806831) can2 4B0#4552523232303220
(1760621882.809667) can2 353#0C480DB7000008
(1760621882.827300) can2 07D#B89232DC7E9AC5DA
(1760621882.832331) can2 263#5E8DA2A922035209
(1760621882.833471) can2 261#0B1773E940D8E189
(1760621882.846876) can2 3FF#50494E4734363020
(1760621882.848494) can2 621#000080
(1760621882.850518) can2 351#00591B0010FFFF10
(1760621882.850523) can2 635#32640E
(1760621882.852535) can2 0F7#840AB2C5E5162B0A
(1760621882.853550) can2 0C8#A9560127D1AA4738
(1760621882.898175) can2 271#07
(1760621882.909629) can2 353#0C480DB7000008
(1760621882.922737) can2 4B0#4C4F473137373620
(1760621882.929722) can2 627#0039393939282828
(1760621882.932489) can2 263#445DF19E1B6CECE0
(1760621882.933638) can2 261#F3360F75C1202664
(1760621882.948465) can2 621#000080
(1760621882.950482) can2 351#00591B0010FFFF10
(1760621882.956964) can2 0F7#61655CC77E08071A
(1760621882.980914) can2 200#54454D5037393620
(1760621882.998220) can2 271#07
(1760621883.009657) can2 353#0C480DB7000008
(1760621883.010666) can2 0A0#0050C2D6A5DD3CAE
(1760621883.029404) can2 1A6#09184EEF50AFBD18
(1760621883.032658) can2 263#4B482B2B3C287520
(1760621883.033781) can2 261#C85C48EC1D8EC4A2
(1760621883.038888) can2 428#080400000000
(1760621883.048476) can2 621#000080
(1760621883.050494) can2 351#00591B0010FFFF10
(1760621883.050498) can2 635#32640E
(1760621883.056551) can2 07D#A0438B36C9AFBF5F
(1760621883.069394) can2 661#810112A000000000
(1760621883.091869) can2 2F1#0302C46A7F15D96A
(1760621883.093021) can2 3E8#47314748434C4856
(1760621883.098186) can2 271#07
(1760621883.109651) can2 353#0C480DB7000008
(1760621883.116888) can2 0F7#909F894F83BFBED4
(1760621883.126751) can2 3FF#1A2FC5D315062736
(1760621883.132523) can2 4B0#4750533632313520
(1760621883.133636) can2 263#4E4F444535323620
(1760621883.134810) can2 261#4F4B333139202020
(1760621883.148486) can2 621#000080
(1760621883.150522) can2 351#00591B0010FFFF10
(1760621883.198185) can2 271#07
(1760621883.209657) can2 353#0C480DB7000008
(1760621883.233055) can2 263#53454E3935382020
(1760621883.234201) can2 0C8#AC3A6904D52620C8
(1760621883.235315) can2 261#3A9CD6B89D225D61
(1760621883.249173) can2 60E#0A00
(1760621883.250183) can2 651#C01461002847
(1760621883.251188) can2 351#00591B0010FFFF10
(1760621883.252199) can2 621#000080
(1760621883.253206) can2 623#0015385817102025
(1760621883.254232) can2 635#32640E
(1760621883.254235) can2 653#000200
(1760621883.260907) can2 18F#877601C8F17DA7E9
(1760621883.263924) can2 0F7#B7776D92E085BFEB
(1760621883.298152) can2 271#07
(1760621883.309609) can2 353#0C480DB7000008
(1760621883.316895) can2 4B0#4750533833323820
(1760621883.323389) can2 1A6#0C5055D4AB418420
(1760621883.333270) can2 263#4F4B313920202020
(1760621883.334418) can2 261#7F30D2417F339DD0
(1760621883.348399) can2 621#000080
(1760621883.350416) can2 351#00591B0010FFFF10
(1760621883.378491) can2 0B4#0B17AE6D2A9D0B2A
(1760621883.397420) can2 0F7#8FB774802C4DC2B8
(1760621883.398430) can2 271#07
(1760621883.409614) can2 353#0C480DB7000008
(1760621883.410616) can2 200#49826BBCC98ABCDA
(1760621883.429713) can2 627#0039393939282828
(1760621883.433363) can2 263#D527F0CE7AC74648
(1760621883.434489) can2 261#AB18A25486F3C9CC
(1760621883.448482) can2 621#000080
(1760621883.450492) can2 351#00591B0010FFFF10
(1760621883.450497) can2 635#32640E
(1760621883.489746) can2 0C8#5924EE84EA39144E
(1760621883.497016) can2 0A0#D84145595D90319F
(1760621883.498148) can2 271#07
(1760621883.509619) can2 353#0C480DB7000008
(1760621883.529399) can2 0F7#A1494F8367C9720D
(1760621883.533499) can2 263#4B482B2B3C287520
(1760621883.534598) can2 261#4E4F444537373520
(1760621883.538814) can2 428#080400000000
(1760621883.548407) can2 621#000080
(1760621883.550424) can2 351#00591B0010FFFF10
(1760621883.562922) can2 07D#7C9CAF97A64ED1CE
(1760621883.569506) can2 661#810112A000000000
(1760621883.588449) can2 4B0#4750533139393420
(1760621883.598156) can2 271#07
(1760621883.609597) can2 353#0C480DB7000008
(1760621883.633597) can2 263#4E4F495345353332
(1760621883.634714) can2 261#3B49733C2B454725
(1760621883.648451) can2 621#000080
(1760621883.650466) can2 351#00591B0010FFFF10
(1760621883.650470) can2 635#32640E
(1760621883.656516) can2 3FF#BF125EC47A0F3503
(1760621883.676096) can2 0B4#0BADB8066F6239B3
(1760621883.677264) can2 2F1#0603CD4C3D46004D
(1760621883.698134) can2 271#07
(1760621883.702537) can2 0F7#29C70C8C98ABD4A8
(1760621883.709577) can2 353#0C480DB7000008
(1760621883.728755) can2 4B0#4657353436362020
(1760621883.733728) can2 263#EC0C4F1AE7FD181B
(1760621883.734850) can2 261#D380F2469F26EC79
(1760621883.738257) can2 1A6#0D5469580AF13E4F
(1760621883.748631) can2 651#C01461002847
(1760621883.749632) can2 621#000080
(1760621883.750637) can2 351#00591B0010FFFF10
(1760621883.751642) can2 653#000200
(1760621883.760705) can2 0B4#EB5043BAC394BA32
(1760621883.767852) can2 18F#4963037339779CD7
(1760621883.798181) can2 271#07
(1760621883.809610) can2 353#0C480DB7000008
(1760621883.824583) can2 0A0#BF0DAE58671C8B3F
(1760621883.833840) can2 263#B924C8057924D225
(1760621883.834983) can2 261#50494E4738353920
(1760621883.836165) can2 0F7#3CB27B7DFAC28707
(1760621883.848435) can2 621#000080
(1760621883.850453) can2 351#00591B0010FFFF10
(1760621883.850456) can2 635#32640E
(1760621883.868179) can2 18F#4D07036064781596
(1760621883.885833) can2 0C8#2D48870566DA34F6
(1760621883.898176) can2 271#07
(1760621883.899693) can2 3FF#53454E3536392020
(1760621883.909617) can2 353#0C480DB7000008
(1760621883.929694) can2 627#0039393939282828
(1760621883.933994) can2 263#59A423A0DC586312
(1760621883.935108) can2 261#2F55D974D5E9268F
(1760621883.948432) can2 621#000080
(1760621883.950460) can2 351#00591B0010FFFF10
(1760621883.954407) can2 2F1#0500176EACFA6BA6
(1760621883.959616) can2 0F7#0D1F62B3347E6E63
(1760621883.998150) can2 271#07
(1760621884.007342) can2 4B0#4552523332393920
(1760621884.009597) can2 353#0C480DB7000008
(1760621884.030454) can2 200#12C9F109A4A1F746
(1760621884.034122) can2 263#BEF599ABF34C5647
(1760621884.035281) can2 261#41AFC0A137DEC27F
(1760621884.038810) can2 428#080400000000
(1760621884.048432) can2 621#000080
(1760621884.050449) can2 351#00591B0010FFFF10
(1760621884.050453) can2 635#32640E
(1760621884.069647) can2 661#810112A000000000
(1760621884.098099) can2 271#07
(1760621884.109560) can2 353#0C480DB7000008
(1760621884.111406) can2 07D#5DCC51D96D7F10A6
(1760621884.113949) can2 1A6#042C6E4DCC69C509
(1760621884.129276) can2 0F7#1B7212C2699300EB
(1760621884.130425) can2 0B4#B9409EC38B60F032
(1760621884.134247) can2 263#A9969CD075DF0F10
(1760621884.135378) can2 261#3BA7E340714B312C
(1760621884.142315) can2 3E8#593335395438474B
(1760621884.148367) can2 621#000080
(1760621884.150379) can2 351#00591B0010FFFF10
(1760621884.198135) can2 271#07
(1760621884.209576) can2 353#0C480DB7000008
(1760621884.234331) can2 263#4B482B2B3C287520
(1760621884.235464) can2 261#E5AD8235FAD10D59
(1760621884.244331) can2 0C8#083C7A7A640F88CC
(1760621884.249138) can2 60E#0A00
(1760621884.250160) can2 651#C01461002847
(1760621884.251159) can2 351#00591B0010FFFF10
(1760621884.252163) can2 621#000080
(1760621884.253191) can2 623#0015385917102025
(1760621884.253195) can2 635#32640E
(1760621884.254200) can2 653#000200
(1760621884.258532) can2 0F7#4709B8907676261B
(1760621884.298141) can2 271#07
(1760621884.303285) can2 0A0#1D7EBB1C90EA0E44
(1760621884.309562) can2 353#0C480DB7000008
(1760621884.322286) can2 07D#7FF9BFA9087102EA
(1760621884.334469) can2 263#4E4F495345333236
(1760621884.335620) can2 261#3B49733C2B454725
(1760621884.337140) can2 2F1#0604774BD179C9BD
(1760621884.344145) can2 3FF#53454E3831202020
(1760621884.348371) can2 621#000080
(1760621884.350383) can2 351#00591B0010FFFF10
(1760621884.384502) can2 4B0#4552523532333920
(1760621884.398120) can2 271#07
(1760621884.401253) can2 0B4#DF4DC6E80F3B9354
(1760621884.409550) can2 353#0C480DB7000008
(1760621884.410828) can2 0F7#694AA26DB2F2287F
(1760621884.425754) can2 200#06FD05CC05392612
(1760621884.429667) can2 627#0039393939282828
(1760621884.434570) can2 263#4B482B2B3C287520
(1760621884.435703) can2 261#79ACA2B14CC5EDA4
(1760621884.448418) can2 621#000080
(1760621884.450426) can2 351#00591B0010FFFF10
(1760621884.450429) can2 635#32640E
(1760621884.462324) can2 1A6#07F16DCA0686564F
(1760621884.465919) can2 18F#34AC033ABA5ED309
(1760621884.498113) can2 271#07
(1760621884.509549) can2 353#0C480DB7000008
(1760621884.534705) can2 263#4B482B2B3C287520
(1760621884.535861) can2 261#4F4B363833202020
(1760621884.537356) can2 0F7#03B5399C50ADC5DE
(1760621884.538798) can2 428#080400000000
(1760621884.548354) can2 621#000080
(1760621884.550374) can2 351#00591B0010FFFF10
(1760621884.568019) can2 0C8#E64B114BD053C503
(1760621884.569721) can2 661#810112A000000000
(1760621884.598140) can2 271#07
(1760621884.609552) can2 353#0C480DB7000008
(1760621884.614994) can2 07D#AA131783F16EF273
(1760621884.634834) can2 263#F4B96B3615BEA29C
(1760621884.635951) can2 261#3B49733C2B454725
(1760621884.648406) can2 621#000080
(1760621884.650430) can2 351#00591B0010FFFF10
(1760621884.650435) can2 635#32640E
(1760621884.670110) can2 2F1#0503655F922558CA
(1760621884.698683) can2 271#07
(1760621884.706138) can2 0B4#490B5242B9B1F743
(1760621884.709541) can2 353#0C480DB7000008
(1760621884.710558) can2 0F7#C841982A48084565
(1760621884.734934) can2 263#4E4F495345333939
(1760621884.736071) can2 261#50494E4731363020
(1760621884.748601) can2 651#C01461002847
(1760621884.749614) can2 621#000080
(1760621884.750621) can2 351#00591B0010FFFF10
(1760621884.751626) can2 653#000200
(1760621884.783438) can2 3FF#6FFC77DDC411B7CC
(1760621884.798091) can2 271#07
(1760621884.809529) can2 353#0C480DB7000008
(1760621884.834973) can2 4B0#4C4F473437373920
(1760621884.836108) can2 263#50494E4739323420
(1760621884.837233) can2 261#54454D5031363420
(1760621884.840896) can2 0F7#C8614A6BB309BF56
(1760621884.848376) can2 621#000080
(1760621884.850393) can2 351#00591B0010FFFF10
(1760621884.850395) can2 635#32640E
(1760621884.867586) can2 1A6#0A1349B943F27F16
(1760621884.891748) can2 0A0#881AEDEA821386E3
(1760621884.894232) can2 0B4#67F57CAF30BEA42C
(1760621884.898050) can2 271#07
(1760621884.909503) can2 353#0C480DB7000008
(1760621884.929610) can2 627#0039393939282828
(1760621884.935218) can2 263#50494E4739322020
(1760621884.936366) can2 261#424FFA8EAB7FE024
(1760621884.948337) can2 621#000080
(1760621884.950356) can2 351#00591B0010FFFF10
(1760621884.974623) can2 0C8#5D007EF4799C1684
(1760621884.998087) can2 271#07
(1760621885.002924) can2 0F7#B33C842FEC5B404F
(1760621885.007664) can2 2F1#0100F4430A5BE78C
(1760621885.009677) can2 18F#7123038D268C2033
(1760621885.010712) can2 353#0C480DB7000008
(1760621885.035451) can2 263#4F4B343131202020
(1760621885.036600) can2 261#806CA0448EBB6DA8
(1760621885.038725) can2 428#080400000000
(1760621885.048341) can2 621#000080
(1760621885.050365) can2 351#00591B0010FFFF10
(1760621885.050368) can2 635#32640E
(1760621885.068951) can2 3FF#4E4F495345343039
(1760621885.070144) can2 661#810112A000000000
(1760621885.098063) can2 271#07
(1760621885.100639) can2 200#3883EA544644F87F
(1760621885.109506) can2 353#0C480DB7000008
(1760621885.118599) can2 07D#6DF2677B77746EAB
(1760621885.135595) can2 263#4B482B2B3C287520
(1760621885.136708) can2 261#4E4F495345313034
(1760621885.148333) can2 621#000080
(1760621885.150350) can2 351#00591B0010FFFF10
(1760621885.171034) can2 0F7#8E8659497D5B895A
(1760621885.198063) can2 271#07
(1760621885.209506) can2 353#0C480DB7000008
(1760621885.225880) can2 07D#691EDCEB14BC5EF4
(1760621885.235785) can2 263#4B482B2B3C287520
(1760621885.236939) can2 261#53454E3630342020
(1760621885.249049) can2 4B0#4C4F473731363620
(1760621885.249051) can2 60E#0A00
(1760621885.250058) can2 651#C01461002847
(1760621885.251090) can2 351#00591B0010FFFF10
(1760621885.252088) can2 621#000080
(1760621885.253097) can2 623#0015390017102025
(1760621885.254108) can2 635#32640E
(1760621885.255112) can2 653#000200
(1760621885.266811) can2 0C8#ED23543CA5780C2D
(1760621885.287280) can2 1A6#0575539F423BCDBA
(1760621885.295346) can2 0B4#9EBFE32EFE629BE1
(1760621885.298057) can2 271#07
(1760621885.309532) can2 353#0C480DB7000008
(1760621885.335981) can2 263#53454E3135392020
(1760621885.337096) can2 261#4E4F444537343920
(1760621885.338469) can2 0F7#C5A79C6FC33B0524
(1760621885.346671) can2 0A0#239D8830E132AE29
(1760621885.348343) can2 621#000080
(1760621885.350369) can2 351#00591B0010FFFF10
(1760621885.398095) can2 271#07
(1760621885.409508) can2 353#0C480DB7000008
(1760621885.429626) can2 627#0039393939282828
(1760621885.436172) can2 263#4B482B2B3C287520
(1760621885.437315) can2 261#50494E4731363720
(1760621885.447800) can2 3FF#54454D5035393120
(1760621885.449822) can2 351#00591B0010FFFF10
(1760621885.449827) can2 621#000080
(1760621885.450830) can2 635#32640E
(1760621885.458905) can2 2F1#0006CA2C3E8D8136
(1760621885.467330) can2 0F7#B35B14A479994545
(1760621885.473239) can2 07D#52997CA76AE9CE6D
(1760621885.498054) can2 271#07
(1760621885.502159) can2 18F#EDD702E32FCD0189
(1760621885.509494) can2 353#0C480DB7000008
(1760621885.534432) can2 0A0#4A4B1B6B2131E7AE
(1760621885.536351) can2 263#53454E3537352020
(1760621885.537457) can2 261#4E4F495345343738
(1760621885.538730) can2 428#080400000000
(1760621885.548337) can2 621#000080
(1760621885.550367) can2 351#00591B0010FFFF10
(1760621885.560905) can2 2F1#0601816887E76C45
(1760621885.569945) can2 661#810112A000000000
(1760621885.576104) can2 0C8#C93EE064BDCE63B4
(1760621885.584936) can2 0F7#39C57E0EFD818665
(1760621885.598077) can2 271#07
(1760621885.609459) can2 200#366C6EDE1F9A1986
(1760621885.610482) can2 353#0C480DB7000008
(1760621885.623692) can2 3FF#58895852E206C65D
(1760621885.636541) can2 263#592E67D3A0027EEA
(1760621885.637650) can2 261#4E4F495345333734
(1760621885.648331) can2 621#000080
(1760621885.650360) can2 351#00591B0010FFFF10
(1760621885.650364) can2 635#32640E
(1760621885.660863) can2 1A6#06DB68B02005153B
(1760621885.698021) can2 271#07
(1760621885.709458) can2 353#0C480DB7000008
(1760621885.719543) can2 0A0#8A1E3D84A3B1A1B4
(1760621885.730765) can2 0B4#A8568345CF77B36E
(1760621885.733386) can2 3FF#E184933E74C9786B
(1760621885.735570) can2 0F7#260208536A69B591
(1760621885.736708) can2 263#50494E4733303820
(1760621885.737863) can2 261#53454E3231302020
(1760621885.748506) can2 651#C01461002847
(1760621885.749516) can2 621#000080
(1760621885.750526) can2 351#00591B0010FFFF10
(1760621885.751534) can2 653#000200
(1760621885.768502) can2 07D#3D7103488CED0117
(1760621885.798040) can2 271#07
(1760621885.809460) can2 353#0C480DB7000008
(1760621885.836886) can2 263#F397567E496D3FCB
(1760621885.838050) can2 261#4E4F444531312020
(1760621885.839254) can2 4B0#4552523136373620
(1760621885.848317) can2 621#000080
(1760621885.850333) can2 351#00591B0010FFFF10
(1760621885.850337) can2 635#32640E
(1760621885.880723) can2 0F7#34C1AE082B51F85C
(1760621885.897008) can2 3FF#4E4F495345373231
(1760621885.898032) can2 271#07
(1760621885.909474) can2 353#0C480DB7000008
(1760621885.921524) can2 2F1#0201BD3B90DF2CA9
(1760621885.929560) can2 627#0039393939282828
(1760621885.937129) can2 263#144ED9D6DF7C69E9
(1760621885.938230) can2 261#3B49733C2B454725
(1760621885.948277) can2 621#000080
(1760621885.950314) can2 351#00591B0010FFFF10
(1760621885.957405) can2 3E8#4E4344555A535848
(1760621885.963952) can2 0C8#911DC5AB3437D253
(1760621885.998048) can2 271#07
(1760621886.000796) can2 18F#B0E60183C1CF1B6A
(1760621886.009438) can2 353#0C480DB7000008
(1760621886.037235) can2 263#D64DC0BBC6D11F09
(1760621886.038361) can2 261#24993879ADA3A326
(1760621886.039392) can2 428#080400000000
(1760621886.044907) can2 0B4#E3B1A3CCF1BE354B
(1760621886.048324) can2 621#000080
(1760621886.050347) can2 351#00591B0010FFFF10
(1760621886.050350) can2 635#32640E
(1760621886.052463) can2 0F7#140513228A2A44F7
(1760621886.070056) can2 661#810112A000000000
(1760621886.089344) can2 1A6#088E661EC4EDB05B
(1760621886.097984) can2 271#07
(1760621886.102764) can2 3FF#4181A26770CF4DF9
(1760621886.109470) can2 353#0C480DB7000008
(1760621886.137446) can2 263#54454D5036353020
(1760621886.138573) can2 261#54454D5034353020
(1760621886.148274) can2 621#000080
(1760621886.150293) can2 351#00591B0010FFFF10
(1760621886.178261) can2 0F7#8E14A1AC0C41AFEB
(1760621886.180483) can2 0A0#C159396C0F92671F
(1760621886.198025) can2 271#07
(1760621886.209470) can2 353#0C480DB7000008
(1760621886.214724) can2 07D#5ADBB98E1A70E039
(1760621886.237582) can2 263#54454D5034363620
(1760621886.238766) can2 261#53454E3839322020
(1760621886.249021) can2 60E#0A00
(1760621886.250034) can2 651#C01461002847
(1760621886.251055) can2 351#00591B0010FFFF10
(1760621886.252064) can2 621#000080
(1760621886.253075) can2 623#0015390117102025
(1760621886.253077) can2 635#32640E
(1760621886.254080) can2 653#000200
(1760621886.260748) can2 200#53454E3134202020
(1760621886.296239) can2 0F7#5757136187AD2031
(1760621886.298018) can2 271#07
(1760621886.309447) can2 353#0C480DB7000008
(1760621886.323495) can2 3FF#53454E3732352020
(1760621886.337771) can2 263#BD433111C3460A37
(1760621886.338870) can2 261#DA84A13D8046F168
(1760621886.343490) can2 2F1#04028648A0613F6C
(1760621886.348279) can2 621#000080
(1760621886.350295) can2 351#00591B0010FFFF10
(1760621886.366715) can2 0C8#8E10D932747AB283
(1760621886.371848) can2 1A6#0B4A5E07D3E9B40E
(1760621886.397983) can2 271#07
(1760621886.403246) can2 0F7#92288E04D00E7AE3
(1760621886.409421) can2 353#0C480DB7000008
(1760621886.422821) can2 4B0#4657383336332020
(1760621886.429529) can2 627#0039393939282828
(1760621886.438027) can2 263#4F4B383330202020
(1760621886.439152) can2 261#50494E4736393820
(1760621886.448295) can2 621#000080
(1760621886.450311) can2 351#00591B0010FFFF10
(1760621886.450316) can2 635#32640E
(1760621886.497967) can2 271#07
(1760621886.508253) can2 0F7#60BB8768F98837EF
(1760621886.510279) can2 353#0C480DB7000008
(1760621886.529384) can2 0A0#E81FA4C22C9030CC
(1760621886.537226) can2 18F#7926012830B6050D
(1760621886.539243) can2 263#4E4F444531373820
(1760621886.540252) can2 261#3B49733C2B454725
(1760621886.541259) can2 428#080400000000
(1760621886.548237) can2 621#000080
(1760621886.550251) can2 351#00591B0010FFFF10
(1760621886.570182) can2 661#810112A000000000
(1760621886.592784) can2 0B4#DC510744E7927A20
(1760621886.597965) can2 271#07
(1760621886.609411) can2 353#0C480DB7000008
(1760621886.623285) can2 07D#A30D1B956017C73C
(1760621886.638285) can2 263#54454D5035353120
(1760621886.639411) can2 261#F212D45EEE72476B
(1760621886.640545) can2 0F7#0D430648FEA71959
(1760621886.648255) can2 621#000080
(1760621886.650288) can2 351#00591B0010FFFF10
(1760621886.650293) can2 635#32640E
(1760621886.660817) can2 3FF#4F4B373820202020
(1760621886.671165) can2 0C8#660035509F4D42F1
(1760621886.681913) can2 0B4#065BB60CF2DB1752
(1760621886.693375) can2 4B0#4552523134343920
(1760621886.697973) can2 271#07
(1760621886.709414) can2 353#0C480DB7000008
(1760621886.738455) can2 263#769756635700D1B4
(1760621886.739592) can2 261#3B49733C2B454725
(1760621886.748445) can2 651#C01461002847
(1760621886.749455) can2 621#000080
(1760621886.750463) can2 351#00591B0010FFFF10
(1760621886.751471) can2 653#000200
(1760621886.763187) can2 1A6#0ECE67FBDA95B896
(1760621886.797970) can2 271#07
(1760621886.801579) can2 0F7#78826D03C89B1A82
(1760621886.809396) can2 353#0C480DB7000008
(1760621886.820189) can2 200#E36568E486DB6984
(1760621886.838622) can2 263#846956732597C4BB
(1760621886.839746) can2 261#6CF40019EA4BFCB1
(1760621886.847432) can2 2F1#0402C37698851FE5
(1760621886.849502) can2 0A0#0DD0E69A4DA146F4
(1760621886.850512) can2 351#00591B0010FFFF10
(1760621886.850515) can2 621#000080
(1760621886.851523) can2 635#32640E
(1760621886.870722) can2 3FF#0BE0B6F3B3A2A1E9
(1760621886.897979) can2 271#07
(1760621886.909445) can2 353#0C480DB7000008
(1760621886.915300) can2 4B0#4C4F473436383920
(1760621886.928860) can2 627#0039393939282828
(1760621886.932426) can2 0A0#21CB4292B9E5F6A7
(1760621886.938826) can2 263#4F4B333630202020
(1760621886.939940) can2 261#53454E3637342020
(1760621886.948222) can2 621#000080
(1760621886.950243) can2 351#00591B0010FFFF10
(1760621886.966265) can2 0F7#85BF47452B32FDA6
(1760621886.998026) can2 271#07
(1760621887.008024) can2 18F#33210256A200D4C1
(1760621887.010057) can2 353#0C480DB7000008
(1760621887.032932) can2 0B4#1919AE1E5D777594
(1760621887.038618) can2 428#080400000000
(1760621887.039779) can2 263#16776CAE2F9AC297
(1760621887.040897) can2 261#4E4F444532353920
(1760621887.043137) can2 07D#B356D9C774B5BC8E
(1760621887.048269) can2 621#000080
(1760621887.050284) can2 351#00591B0010FFFF10
(1760621887.050287) can2 635#32640E
(1760621887.070292) can2 661#810112A000000000
(1760621887.073311) can2 0F7#383A924107927F9F
(1760621887.084560) can2 2F1#030578474782E122
(1760621887.095155) can2 0C8#D022A2F741880F3B
(1760621887.097976) can2 271#07
(1760621887.109408) can2 353#0C480DB7000008
(1760621887.130666) can2 3FF#147624F69C3DF27F
(1760621887.135017) can2 4B0#4C4F473337363920
(1760621887.140020) can2 263#7A290D1552B37A0E
(1760621887.141031) can2 261#A1FD7C48EB472AA8
(1760621887.148227) can2 621#000080
(1760621887.150251) can2 351#00591B0010FFFF10
(1760621887.185695) can2 07D#54C4FC9856C15742
(1760621887.192325) can2 0F7#7643355680E4122A
(1760621887.197942) can2 271#07
(1760621887.200215) can2 1A6#0C0F5BB79DAF8218
(1760621887.208004) can2 0B4#2F536EFCC1D12C4F
(1760621887.210023) can2 353#0C480DB7000008
(1760621887.239339) can2 263#AF81F54A706232E6
(1760621887.240457) can2 261#466CAA16E17BBA7D
(1760621887.248952) can2 60E#0A00
(1760621887.249959) can2 651#C01461002847
(1760621887.250960) can2 351#00591B0010FFFF10
(1760621887.251974) can2 621#000080
(1760621887.252980) can2 623#0015390217102025
(1760621887.253985) can2 635#32640E
(1760621887.253988) can2 653#000200
(1760621887.297988) can2 271#07
(1760621887.309446) can2 353#0C480DB7000008
(1760621887.332543) can2 2F1#0202967631ADCCC7
(1760621887.336768) can2 0A0#142EEC4627424452
(1760621887.339485) can2 263#BF1D2073B2C1D282
(1760621887.340616) can2 261#54454D5039333420
(1760621887.348211) can2 621#000080
(1760621887.350233) can2 351#00591B0010FFFF10
(1760621887.353418) can2 18F#58F1033E46A9E482
(1760621887.371114) can2 0F7#8C7281B3EC288039
(1760621887.397953) can2 271#07
(1760621887.409374) can2 353#0C480DB7000008
(1760621887.429475) can2 627#0039393939282828
(1760621887.434306) can2 2F1#06050931566779A2
(1760621887.439679) can2 263#4E4F495345353834
(1760621887.440793) can2 261#4E4F495345383530
(1760621887.448217) can2 621#000080
(1760621887.450237) can2 351#00591B0010FFFF10
(1760621887.450240) can2 635#32640E
(1760621887.497936) can2 271#07
(1760621887.509371) can2 353#0C480DB7000008
(1760621887.520029) can2 1A6#0407499371F6D814
(1760621887.526689) can2 3FF#EBE94F35097D266D
(1760621887.538587) can2 428#080400000000
(1760621887.539861) can2 263#D7A5D5262B466CA8
(1760621887.540995) can2 261#3B49733C2B454725
(1760621887.543926) can2 0F7#5A34621B0AF0B599
(1760621887.548181) can2 621#000080
(1760621887.550214) can2 351#00591B0010FFFF10
(1760621887.551222) can2 4B0#4750533137302020
(1760621887.570403) can2 661#810112A000000000
(1760621887.587761) can2 0C8#C2164E4CCAC734E2
(1760621887.597943) can2 271#07
(1760621887.609349) can2 353#0C480DB7000008
(1760621887.637433) can2 2F1#0606744BFB8F2330
(1760621887.640066) can2 263#4B482B2B3C287520
(1760621887.641185) can2 261#3B49733C2B454725
(1760621887.648216) can2 621#000080
(1760621887.650235) can2 351#00591B0010FFFF10
(1760621887.650238) can2 635#32640E
(1760621887.657982) can2 0B4#69CCCC26A6B71AE0
(1760621887.676467) can2 200#0670B8910CFFA215
(1760621887.678943) can2 07D#0DF765E84D9E7C8F
(1760621887.697915) can2 271#07
(1760621887.709387) can2 353#0C480DB7000008
(1760621887.710845) can2 0F7#B9A4162643BC26DE
(1760621887.711981) can2 18F#49B10139F1EA7986
(1760621887.740220) can2 261#53454E3438342020
(1760621887.741346) can2 263#4B482B2B3C287520
(1760621887.748403) can2 651#C01461002847
(1760621887.749414) can2 621#000080
(1760621887.750419) can2 351#00591B0010FFFF10
(1760621887.751429) can2 653#000200
(1760621887.777226) can2 4B0#4750533237313820
(1760621887.797932) can2 271#07
(1760621887.809383) can2 353#0C480DB7000008
(1760621887.815797) can2 1A6#030E5C1CB496F538
(1760621887.819915) can2 3E8#524C353647343343
(1760621887.828887) can2 4B0#4552523334323520
(1760621887.840411) can2 261#A7E4FC9D26EF5602
(1760621887.841561) can2 263#4E4F444538372020
(1760621887.845826) can2 2F1#04040B4819FE878C
(1760621887.848198) can2 621#000080
(1760621887.850227) can2 351#00591B0010FFFF10
(1760621887.850232) can2 635#32640E
(1760621887.852229) can2 0A0#FDD04FFE9E7D5973
(1760621887.883066) can2 0F7#439B331A4206975D
(1760621887.897904) can2 271#07
(1760621887.909361) can2 353#0C480DB7000008
(1760621887.921004) can2 18F#AABA01D2A7FB881F
(1760621887.929481) can2 627#0039393939282828
(1760621887.940570) can2 261#96FDB016ECADF972
(1760621887.941697) can2 263#4B482B2B3C287520
(1760621887.942982) can2 4B0#4657353535352020
(1760621887.948195) can2 621#000080
(1760621887.950209) can2 351#00591B0010FFFF10
(1760621887.988153) can2 07D#0DC2DB6B99FCEA2B
(1760621887.997881) can2 271#07
(1760621888.009322) can2 353#0C480DB7000008
(1760621888.019125) can2 0F7#311815C140220CEB
(1760621888.025641) can2 3FF#4F4B363820202020
(1760621888.038573) can2 428#080400000000
(1760621888.040785) can2 261#8F95F0DEB4B6BF90
(1760621888.041919) can2 263#632480F2865B6B07
(1760621888.048186) can2 621#000080
(1760621888.050200) can2 351#00591B0010FFFF10
(1760621888.051237) can2 200#54454D5033343120
(1760621888.051240) can2 635#32640E
(1760621888.061952) can2 0C8#A44BA4E089806E6E
(1760621888.070512) can2 661#810112A000000000
(1760621888.097876) can2 271#07
(1760621888.109343) can2 353#0C480DB7000008
(1760621888.116710) can2 18F#00330180EF545833
(1760621888.140950) can2 261#4E4F495345383135
(1760621888.142071) can2 263#4E4F444537333220
(1760621888.148141) can2 621#000080
(1760621888.150162) can2 351#00591B0010FFFF10
(1760621888.163960) can2 1A6#0E14659DEB727C59
(1760621888.191412) can2 0F7#8FBEC10CC5156A0C
(1760621888.198316) can2 0B4#578AC40C29ABCC72
(1760621888.199322) can2 271#07
(1760621888.203332) can2 0A0#EA90B046AE0C20C2
(1760621888.209333) can2 353#0C480DB7000008
(1760621888.241123) can2 261#70B4735BBF4AEBCC
(1760621888.242251) can2 263#06791C4BA92D2FF2
(1760621888.248897) can2 60E#0A00
(1760621888.249909) can2 651#C01461002847
(1760621888.250911) can2 351#00591B0010FFFF10
(1760621888.251921) can2 621#000080
(1760621888.252942) can2 623#0015390317102025
(1760621888.252947) can2 635#32640E
(1760621888.253947) can2 653#000200
(1760621888.257977) can2 07D#EE5FA66B45A54D07
(1760621888.297900) can2 271#07
(1760621888.309331) can2 353#0C480DB7000008
(1760621888.321701) can2 0F7#20B969276A93B9C8
(1760621888.341253) can2 261#4E4F495345363232
(1760621888.342405) can2 2F1#040207433E8E1156
(1760621888.343519) can2 263#CD55BB0A47F14B8F
(1760621888.348134) can2 621#000080
(1760621888.350158) can2 351#00591B0010FFFF10
(1760621888.356218) can2 200#4E4F444532353120
(1760621888.360753) can2 3FF#0E402A3E9914AE77
(1760621888.397838) can2 271#07
(1760621888.409297) can2 353#0C480DB7000008
(1760621888.412057) can2 4B0#4254313530202020
(1760621888.421881) can2 0F7#A13E866CE9A153D5
(1760621888.429390) can2 627#0039393939282828
(1760621888.436587) can2 0C8#331D7B45A17DA3AB
(1760621888.441363) can2 261#54454D5032373220
(1760621888.442512) can2 263#50494E4734303720
(1760621888.448211) can2 621#000080
(1760621888.450207) can2 351#00591B0010FFFF10
(1760621888.450210) can2 635#32640E
(1760621888.474636) can2 3FF#F7FC1B0758BB11F0
(1760621888.487185) can2 18F#B84501F169F54F32
(1760621888.494728) can2 0B4#16830DB6F0E13016
(1760621888.497891) can2 271#07
(1760621888.505591) can2 07D#6C357410A3B5587F
(1760621888.509345) can2 353#0C480DB7000008
(1760621888.537013) can2 1A6#0E27672780B7C7BC
(1760621888.538546) can2 428#080400000000
(1760621888.541514) can2 261#FCCF32941790E44C
(1760621888.542644) can2 263#7E669CC1B24A0B92
(1760621888.548139) can2 621#000080
(1760621888.550144) can2 351#00591B0010FFFF10
(1760621888.570605) can2 661#810112A000000000
(1760621888.590612) can2 2F1#0405876117BD5021
(1760621888.597916) can2 271#07
(1760621888.600891) can2 0F7#67086EBE1E90695C
(1760621888.609329) can2 353#0C480DB7000008
(1760621888.637792) can2 0A0#45C385D6F6498E8A
(1760621888.641617) can2 261#53454E3830352020
(1760621888.642770) can2 263#4F4B313931202020
(1760621888.648160) can2 621#000080
(1760621888.650177) can2 351#00591B0010FFFF10
(1760621888.650181) can2 635#32640E
(1760621888.677866) can2 18F#877A01F763E0043E
(1760621888.697857) can2 271#07
(1760621888.700801) can2 4B0#4552523433333320
(1760621888.709300) can2 353#0C480DB7000008
(1760621888.717162) can2 0F7#2A786820C041C1E1
(1760621888.718272) can2 2F1#0202F1516E351F70
(1760621888.739845) can2 18F#D8B200B31E489665
(1760621888.741773) can2 261#54454D5031373020
(1760621888.742863) can2 263#B483A786729E6B1C
(1760621888.744025) can2 0C8#232E4CEA83D7FBB2
(1760621888.748370) can2 651#C01461002847
(1760621888.749380) can2 621#000080
(1760621888.750401) can2 351#00591B0010FFFF10
(1760621888.751402) can2 653#000200
(1760621888.774328) can2 0A0#2D64A4F6CB2DC364
(1760621888.797812) can2 271#07
(1760621888.802384) can2 1A6#040063EBE634A60A
(1760621888.809277) can2 353#0C480DB7000008
(1760621888.810699) can2 200#53454E3238342020
(1760621888.841868) can2 261#3B49733C2B454725
(1760621888.842984) can2 263#40D7B0EE2E296049
(1760621888.847985) can2 0F7#BFAE4A6FAA9765F9
(1760621888.850004) can2 351#00591B0010FFFF10
(1760621888.850007) can2 621#000080
(1760621888.851035) can2 635#32640E
(1760621888.864103) can2 3FF#4E4F444537343220
(1760621888.871354) can2 0B4#D9E8E9999D1F757A
(1760621888.897850) can2 271#07
(1760621888.909286) can2 353#0C480DB7000008
(1760621888.929388) can2 627#0039393939282828
(1760621888.941983) can2 261#54454D5031343320
(1760621888.943142) can2 263#4C5B037F1E061803
(1760621888.948090) can2 621#000080
(1760621888.950103) can2 351#00591B0010FFFF10
(1760621888.951108) can2 0F7#1B6F02BE5FFC5FA1
(1760621888.966756) can2 0A0#FB0CF6541A0BE582
(1760621888.988163) can2 4B0#4552523538313020
(1760621888.997846) can2 271#07
(1760621889.009301) can2 353#0C480DB7000008
(1760621889.031931) can2 3FF#BA8B2FEC0D3AB4BA
(1760621889.038496) can2 428#080400000000
(1760621889.042135) can2 261#3B49733C2B454725
(1760621889.043242) can2 263#4E4F495345323131
(1760621889.045632) can2 07D#57AB92AA1730FAA8
(1760621889.048117) can2 621#000080
(1760621889.050135) can2 351#00591B0010FFFF10
(1760621889.050138) can2 635#32640E
(1760621889.063791) can2 0F7#B5656D185A0E03A9
(1760621889.070711) can2 661#810112A000000000
(1760621889.097863) can2 271#07
(1760621889.109265) can2 353#0C480DB7000008
(1760621889.142274) can2 261#67B58B4D1A22727C
(1760621889.143420) can2 263#4F4B353231202020
(1760621889.148090) can2 621#000080
(1760621889.150125) can2 351#00591B0010FFFF10
(1760621889.153296) can2 18F#3B43010CB507D247
(1760621889.178214) can2 1A6#0DD24739578DBEB3
(1760621889.189270) can2 0F7#AC500C9DA622BE55
(1760621889.197802) can2 271#07
(1760621889.207393) can2 0C8#BF1380B744521669
(1760621889.209426) can2 353#0C480DB7000008
(1760621889.242440) can2 261#4F4B353532202020
(1760621889.243570) can2 263#D6C80D14761B15B5
(1760621889.248872) can2 60E#0A00
(1760621889.249880) can2 651#C01461002847
(1760621889.250888) can2 351#00591B0010FFFF10
(1760621889.251897) can2 621#000080
(1760621889.252902) can2 623#0015390417102025
(1760621889.253927) can2 635#32640E
(1760621889.253930) can2 653#000200
(1760621889.270905) can2 2F1#00003C2C94CBE121
(1760621889.297851) can2 271#07
(1760621889.301135) can2 0F7#2948272064A03C8B
(1760621889.309315) can2 353#0C480DB7000008
(1760621889.342529) can2 261#3B49733C2B454725
(1760621889.343681) can2 263#4E4F495345363920
(1760621889.348083) can2 621#000080
(1760621889.350105) can2 351#00591B0010FFFF10
(1760621889.397838) can2 271#07
(1760621889.409257) can2 353#0C480DB7000008
(1760621889.411021) can2 0F7#A47009C7A5CA6105
(1760621889.412434) can2 0A0#790A1393A23A68B8
(1760621889.414393) can2 0B4#07C8A88664685324
(1760621889.429404) can2 627#0039393939282828
(1760621889.437124) can2 1A6#0F716DF5B885A1FC
(1760621889.442186) can2 07D#0E5ECCB1E87B9B00
(1760621889.443319) can2 261#05FD241949EC452B
(1760621889.444451) can2 263#4B482B2B3C287520
(1760621889.448111) can2 621#000080
(1760621889.450131) can2 351#00591B0010FFFF10
(1760621889.450135) can2 635#32640E
(1760621889.462834) can2 4B0#4254343930362020
(1760621889.469937) can2 0C8#2925A4C3EF327C0D
(1760621889.497828) can2 271#07
(1760621889.509250) can2 353#0C480DB7000008
(1760621889.538495) can2 428#080400000000
(1760621889.542891) can2 261#0BDAF38E1DA93690
(1760621889.544018) can2 263#096F4FDA141C6B32
(1760621889.548098) can2 621#000080
(1760621889.550113) can2 351#00591B0010FFFF10
(1760621889.567069) can2 18F#1E4E0395AEA04C3E
(1760621889.570845) can2 661#810112A000000000
(1760621889.583955) can2 0F7#7C4BA71203439F8F
(1760621889.597788) can2 271#07
(1760621889.603859) can2 3FF#46E43B389C36C9B9
(1760621889.609243) can2 353#0C480DB7000008
(1760621889.631002) can2 2F1#02010A4D00AD2260
(1760621889.643002) can2 261#4E4F495345393630
(1760621889.644151) can2 263#4F4B353631202020
(1760621889.648099) can2 621#000080
(1760621889.650123) can2 351#00591B0010FFFF10
(1760621889.650127) can2 635#32640E
(1760621889.652370) can2 0A0#52EE242EC57683DE
(1760621889.695580) can2 07D#C6894B2C38F203CD
(1760621889.697786) can2 271#07
(1760621889.707832) can2 4B0#4C4F473936363020
(1760621889.709845) can2 353#0C480DB7000008
(1760621889.737361) can2 1A6#0BED62FA19AC6984
(1760621889.738493) can2 0F7#785D410F5984A3E2
(1760621889.743115) can2 261#C35D4144BA7646B0
(1760621889.744239) can2 263#078C9D089BA2854E
(1760621889.748265) can2 651#C01461002847
(1760621889.749278) can2 621#000080
(1760621889.750289) can2 351#00591B0010FFFF10
(1760621889.751296) can2 653#000200
(1760621889.797782) can2 271#07
(1760621889.805857) can2 200#5A58166409EBCF63
(1760621889.809245) can2 353#0C480DB7000008
(1760621889.816798) can2 3E8#34504D3052365356
(1760621889.836613) can2 3FF#50494E4736373520
(1760621889.843241) can2 261#9EA22E5D848557BF
(1760621889.844350) can2 263#4E4F444532392020
(1760621889.848066) can2 621#000080
(1760621889.850084) can2 351#00591B0010FFFF10
(1760621889.850088) can2 635#32640E
(1760621889.875155) can2 0B4#384E5CEC59B45697
(1760621889.881210) can2 0F7#11754509D50419B7
(1760621889.897774) can2 271#07
(1760621889.909212) can2 353#0C480DB7000008
(1760621889.911488) can2 0C8#221D1D2BB80592C8
(1760621889.929299) can2 627#0039393939282828
(1760621889.938223) can2 0B4#57AB087D99DCCCE2
(1760621889.943390) can2 261#F5D0DDC45136E17E
(1760621889.944539) can2 263#68C1FA234D2E804D
(1760621889.948042) can2 621#000080
(1760621889.950060) can2 351#00591B0010FFFF10
(1760621889.987216) can2 18F#D8DA01DD2BC430B3
(1760621889.997752) can2 271#07
(1760621890.009217) can2 353#0C480DB7000008
(1760621890.027142) can2 07D#FF9B8C6E488B3AE3
(1760621890.038470) can2 428#080400000000
(1760621890.043449) can2 261#87C5CE2128B759C8
(1760621890.044595) can2 263#366A38BBC5851B2B
(1760621890.049345) can2 0F7#8A5514017027586E
(1760621890.050371) can2 351#00591B0010FFFF10
(1760621890.050374) can2 621#000080
(1760621890.051379) can2 635#32640E
(1760621890.070976) can2 661#810112A000000000
(1760621890.088221) can2 07D#AA2354265A05DD2B
(1760621890.097781) can2 271#07
(1760621890.109251) can2 353#0C480DB7000008
(1760621890.143602) can2 261#4E4F444537393320
(1760621890.144733) can2 263#4B482B2B3C287520
(1760621890.145897) can2 3FF#50494E4735333420
(1760621890.148041) can2 621#000080
(1760621890.150070) can2 351#00591B0010FFFF10
(1760621890.152798) can2 1A6#07EB50639D8D641D
(1760621890.183115) can2 2F1#0404555D38BB98DB
(1760621890.197602) can2 0F7#1E6E0D818D855996
(1760621890.198606) can2 271#07
(1760621890.199700) can2 0A0#3002614D1DA44358
(1760621890.209227) can2 353#0C480DB7000008
(1760621890.218320) can2 07D#951F8AC18FB00204
(1760621890.243698) can2 261#15D319B1252C632E
(1760621890.244823) can2 263#4B482B2B3C287520
(1760621890.248785) can2 60E#0A00
(1760621890.249798) can2 651#C01461002847
(1760621890.250801) can2 351#00591B0010FFFF10
(1760621890.251813) can2 621#000080
(1760621890.252820) can2 18F#7B0B0127A7076CCD
(1760621890.253830) can2 623#0015390517102025
(1760621890.254838) can2 635#32640E
(1760621890.254841) can2 653#000200
(1760621890.268695) can2 200#4E4F444537323420
(1760621890.273107) can2 4B0#4C4F473935373420
(1760621890.297784) can2 271#07
(1760621890.309233) can2 353#0C480DB7000008
(1760621890.343863) can2 261#54454D5031343020
(1760621890.344995) can2 263#FC98CF0FA96857DB
(1760621890.348045) can2 621#000080
(1760621890.350061) can2 351#00591B0010FFFF10
(1760621890.366871) can2 0F7#734A5D6CFD1B3BF5
(1760621890.368936) can2 0C8#EC24923A894A3D73
(1760621890.397738) can2 271#07
(1760621890.409184) can2 353#0C480DB7000008
(1760621890.422693) can2 2F1#02070D656BF2FE96
(1760621890.429291) can2 627#0039393939282828
(1760621890.430303) can2 3E8#31505A3642424A46
(1760621890.443972) can2 261#4E4F495345393537
(1760621890.445116) can2 263#2349D7DBD2276C43
(1760621890.448034) can2 621#000080
(1760621890.450053) can2 351#00591B0010FFFF10
(1760621890.450056) can2 635#32640E
(1760621890.479842) can2 07D#EF339A846408329E
(1760621890.483471) can2 1A6#07FC5AFCED3C8C80
(1760621890.490581) can2 0A0#399A91315C7BD761
(1760621890.492170) can2 0B4#012E243787F26AC3
(1760621890.497745) can2 271#07
(1760621890.509197) can2 353#0C480DB7000008
(1760621890.511219) can2 3FF#4F4B313035202020
(1760621890.522584) can2 0F7#635E142E2CBDC2FD
(1760621890.538420) can2 428#080400000000
(1760621890.544082) can2 261#3B49733C2B454725
(1760621890.545199) can2 263#78E934C4B87C4F1C
(1760621890.548003) can2 621#000080
(1760621890.550017) can2 351#00591B0010FFFF10
(1760621890.571097) can2 661#810112A000000000
(1760621890.597751) can2 271#07
(1760621890.609184) can2 353#0C480DB7000008
(1760621890.631625) can2 0F7#5D893C92F6D32117
(1760621890.644252) can2 261#4F4B333134202020
(1760621890.645376) can2 263#53454E3939322020
(1760621890.648026) can2 621#000080
(1760621890.650049) can2 351#00591B0010FFFF10
(1760621890.650054) can2 635#32640E
(1760621890.696810) can2 18F#94AE03DAFB7B931A
(1760621890.697843) can2 271#07
(1760621890.709169) can2 353#0C480DB7000008
(1760621890.714612) can2 2F1#0300E9532A6F0021
(1760621890.717521) can2 4B0#4254313630202020
(1760621890.733552) can2 200#881D0EF5D2071011
(1760621890.744382) can2 261#88C2F60781BD7713
(1760621890.745520) can2 263#F669901CFC250563
(1760621890.748216) can2 651#C01461002847
(1760621890.749226) can2 621#000080
(1760621890.750238) can2 0F7#07A18F4A4BAA19C9
(1760621890.752258) can2 351#00591B0010FFFF10
(1760621890.752260) can2 653#000200
(1760621890.762409) can2 0C8#2C3E540F1E4E8C11
(1760621890.797721) can2 271#07
(1760621890.809187) can2 353#0C480DB7000008
(1760621890.811010) can2 0B4#AFDBD7589327A900
(1760621890.829306) can2 3FF#00A058631D699071
(1760621890.844483) can2 261#8462AA701F63DE9B
(1760621890.845639) can2 263#7CB35FE0803F7762
(1760621890.848043) can2 621#000080
(1760621890.850060) can2 351#00591B0010FFFF10
(1760621890.850064) can2 635#32640E
(1760621890.885310) can2 1A6#02E4695BC8D6CE37
(1760621890.896115) can2 0F7#781870C3C7BF5885
(1760621890.897735) can2 271#07
(1760621890.909198) can2 353#0C480DB7000008
(1760621890.929292) can2 627#0039393939282828
(1760621890.944608) can2 261#3B49733C2B454725
(1760621890.945723) can2 263#446A4F4A91688CD2
(1760621890.948017) can2 621#000080
(1760621890.950033) can2 351#00591B0010FFFF10
(1760621890.962313) can2 07D#0EDDA85DCF1B2B39
(1760621890.996366) can2 4B0#4552523434353820
(1760621890.997747) can2 271#07
(1760621891.009173) can2 353#0C480DB7000008
(1760621891.021497) can2 0A0#F613B4B7853E5620
(1760621891.031058) can2 18F#3E8001FBB5ECB8A1
(1760621891.038377) can2 428#080400000000
(1760621891.044744) can2 261#92573F7B41ADA5DC
(1760621891.045858) can2 263#B5DDD6923ADF77B6
(1760621891.048023) can2 621#000080
(1760621891.050043) can2 351#00591B0010FFFF10
(1760621891.050046) can2 635#32640E
(1760621891.055126) can2 3FF#54B581E0DA8CCF19
(1760621891.071184) can2 661#810112A000000000
(1760621891.075209) can2 0F7#8730AF77B31193FD
(1760621891.097688) can2 271#07
(1760621891.101656) can2 0A0#80E3884F596152C4
(1760621891.102804) can2 07D#D86EF06723CA956F
(1760621891.109130) can2 353#0C480DB7000008
(1760621891.115666) can2 0C8#A9087CBC7AC9A764
(1760621891.116794) can2 2F1#0200C53139F8EA36
(1760621891.144846) can2 261#3B49733C2B454725
(1760621891.145957) can2 263#64262DA452463D96
(1760621891.147970) can2 621#000080
(1760621891.149992) can2 351#00591B0010FFFF10
(1760621891.197685) can2 271#07
(1760621891.209157) can2 353#0C480DB7000008
(1760621891.210157) can2 0F7#20BC9376FC030AD0
(1760621891.244999) can2 261#50494E4737322020
(1760621891.246161) can2 263#54454D5038343920
(1760621891.248719) can2 60E#0A00
(1760621891.249730) can2 651#C01461002847
(1760621891.250738) can2 351#00591B0010FFFF10
(1760621891.251749) can2 621#000080
(1760621891.252761) can2 623#0015390617102025
(1760621891.252764) can2 635#32640E
(1760621891.253786) can2 653#000200
(1760621891.269619) can2 2F1#0102EA759F71DB53
(1760621891.297719) can2 271#07
(1760621891.309162) can2 353#0C480DB7000008
(1760621891.331089) can2 1A6#05E566F9F57DF9B5
(1760621891.345164) can2 261#4F4B353220202020
(1760621891.346295) can2 263#4F4B343439202020
(1760621891.347968) can2 621#000080
(1760621891.349993) can2 351#00591B0010FFFF10
(1760621891.351001) can2 4B0#4657333534202020
(1760621891.359443) can2 0B4#28651C83A122DD61
(1760621891.370415) can2 0F7#1F64894BD48E40DA
(1760621891.397674) can2 271#07
(1760621891.409142) can2 353#0C480DB7000008
(1760621891.410149) can2 07D#077C319420F224DF
(1760621891.421059) can2 2F1#05053470F9F6239B
(1760621891.429237) can2 627#0039393939282828
(1760621891.445251) can2 261#23875572F5F9B718
(1760621891.446375) can2 263#50494E4739363320
(1760621891.447998) can2 621#000080
(1760621891.450046) can2 351#00591B0010FFFF10
(1760621891.450050) can2 635#32640E
(1760621891.453950) can2 4B0#4750533239323720
(1760621891.459081) can2 0A0#DE70D7D6B5E9A39F
(1760621891.473021) can2 0F7#81B35BACD04CA43E
(1760621891.497673) can2 271#07
(1760621891.509107) can2 353#0C480DB7000008
(1760621891.513109) can2 18F#A9A701EC8D0817B5
(1760621891.538340) can2 428#080400000000
(1760621891.545362) can2 261#465EC8B9EBEFBF1B
(1760621891.546501) can2 263#E018B86A215C47A1
(1760621891.547926) can2 621#000080
(1760621891.549943) can2 351#00591B0010FFFF10
(1760621891.550951) can2 0C8#D0210D2041C4DFE1
(1760621891.551956) can2 3FF#4F4B353338202020
(1760621891.571300) can2 661#810112A000000000
(1760621891.580080) can2 200#4E4F495345313736
(1760621891.597692) can2 271#07
(1760621891.609130) can2 353#0C480DB7000008
(1760621891.614359) can2 1A6#0CE64EBAE24E8712
(1760621891.626146) can2 0F7#A7A3C8AB126CE77E
(1760621891.645446) can2 261#B2B48668CF556B54
(1760621891.646562) can2 263#4E4F444539383320
(1760621891.647720) can2 0A0#3F665AFD1334EE47
(1760621891.649736) can2 351#00591B0010FFFF10
(1760621891.649740) can2 621#000080
(1760621891.650747) can2 635#32640E
(1760621891.697684) can2 271#07
(1760621891.703357) can2 3E8#324C37355943394D
(1760621891.708332) can2 353#0C480DB7000008
(1760621891.713934) can2 2F1#04036563EDA725BC
(1760621891.721077) can2 0B4#1B8ABB43F3B23D6F
(1760621891.722580) can2 3FF#3928385EB8A6E462
(1760621891.735967) can2 4B0#4552523430323020
(1760621891.745607) can2 261#4F4B353434202020
(1760621891.747631) can2 263#FE72D895C85F8E82
(1760621891.748636) can2 651#C01461002847
(1760621891.749646) can2 621#000080
(1760621891.750658) can2 351#00591B0010FFFF10
(1760621891.751664) can2 653#000200
(1760621891.772228) can2 0F7#4C2AB85A88ABEC70
(1760621891.783742) can2 0B4#6FA2A0B49D94266E
(1760621891.797709) can2 271#07
(1760621891.809116) can2 353#0C480DB7000008
(1760621891.845698) can2 261#4E4F495345343539
(1760621891.846824) can2 263#4E4F495345323130
(1760621891.847954) can2 621#000080
(1760621891.849968) can2 351#00591B0010FFFF10
(1760621891.849972) can2 635#32640E
(1760621891.882714) can2 0F7#485FA34216894A7D
(1760621891.891397) can2 1A6#0278576522DC1B18
(1760621891.897671) can2 271#07
(1760621891.909094) can2 353#0C480DB7000008
(1760621891.929196) can2 627#0039393939282828
(1760621891.930200) can2 07D#BDF6A8007DDBE912
(1760621891.945867) can2 261#F257C16C2044AEA1
(1760621891.946993) can2 263#4E4F444533383520
(1760621891.947998) can2 621#000080
(1760621891.950014) can2 351#00591B0010FFFF10
(1760621891.974533) can2 3FF#9A5C344B2641BCEA
(1760621891.984549) can2 0C8#42405770FBAE5E7E
(1760621891.987913) can2 18F#62EB0310F354CD7C
(1760621891.997700) can2 271#07
(1760621892.007783) can2 3FF#8ECED685BC4C0994
(1760621892.009824) can2 353#0C480DB7000008
(1760621892.036265) can2 0F7#A39525075BFCA81A
(1760621892.038325) can2 428#080400000000
(1760621892.046001) can2 261#4F4B393730202020
(1760621892.047128) can2 263#53454E3139302020
(1760621892.048138) can2 621#000080
(1760621892.049153) can2 351#00591B0010FFFF10
(1760621892.050161) can2 635#32640E
(1760621892.071415) can2 661#810112A000000000
(1760621892.087498) can2 0A0#7657DDA8CDB5CA6A
(1760621892.096329) can2 2F1#04027B2C8543A1ED
(1760621892.097456) can2 4B0#4750533536393220
(1760621892.098463) can2 271#07
(1760621892.109101) can2 353#0C480DB7000008
(1760621892.121586) can2 18F#B06F035305CB6918
(1760621892.132788) can2 0B4#15FA410DA2E0D01A
(1760621892.146115) can2 261#6E6485E94CA4E7E5
(1760621892.147249) can2 263#4B2B6245BEC10F00
(1760621892.149262) can2 351#00591B0010FFFF10
(1760621892.149267) can2 621#000080
(1760621892.159100) can2 1A6#07BD56B20F4296FF
(1760621892.160222) can2 0F7#3A5D80B0B2E4BB03
(1760621892.197652) can2 271#07
(1760621892.209089) can2 353#0C480DB7000008
(1760621892.213422) can2 4B0#4552523235353620
(1760621892.246247) can2 261#2874F527FC3BEC90
(1760621892.247366) can2 263#4E4F444533323420
(1760621892.248381) can2 60E#0A00
(1760621892.249405) can2 651#C01461002847
(1760621892.250410) can2 351#00591B0010FFFF10
(1760621892.251415) can2 621#000080
(1760621892.252427) can2 623#0015390717102025
(1760621892.253432) can2 635#32640E
(1760621892.254444) can2 653#000200
(1760621892.276339) can2 0B4#189A95280426A84B
(1760621892.297636) can2 271#07
(1760621892.309089) can2 353#0C480DB7000008
(1760621892.310090) can2 0F7#7C6175719CF2CBF1
(1760621892.315102) can2 2F1#0101E44D7EE4536B
(1760621892.335724) can2 0A0#05E99A233107DB40
(1760621892.346349) can2 261#53454E3238312020
(1760621892.347506) can2 263#4B482B2B3C287520
(1760621892.349541) can2 351#00591B0010FFFF10
(1760621892.350551) can2 3FF#50494E4737303220
(1760621892.351556) can2 621#000080
(1760621892.397635) can2 271#07
(1760621892.409096) can2 353#0C480DB7000008
(1760621892.422597) can2 0F7#79267E76E9CFC691
(1760621892.426644) can2 07D#02671E7588CBB03E
(1760621892.429176) can2 627#0039393939282828
(1760621892.433597) can2 0C8#E92E7200D497821D
(1760621892.441856) can2 200#53454E3937392020
(1760621892.446473) can2 261#4E4F495345323032
(1760621892.447602) can2 263#25A9C845745592A5
(1760621892.449620) can2 351#00591B0010FFFF10
(1760621892.449624) can2 621#000080
(1760621892.450633) can2 635#32640E
(1760621892.482726) can2 3FF#AABF364B84D98037
(1760621892.497634) can2 271#07
(1760621892.509105) can2 353#0C480DB7000008
(1760621892.528978) can2 0B4#CBB9AE457F9D04D6
(1760621892.538307) can2 428#080400000000
(1760621892.546569) can2 261#5356DB42BCF58B72
(1760621892.547703) can2 263#046E5BDECD7B1525
(1760621892.549729) can2 351#00591B0010FFFF10
(1760621892.549733) can2 621#000080
(1760621892.551741) can2 0A0#D1ED8A29E22FBFB6
(1760621892.571537) can2 661#810112A000000000
(1760621892.584730) can2 0F7#3CB40E61EA97C3EB
(1760621892.597639) can2 271#07
(1760621892.609074) can2 1A6#0578635DFEED1AA2
(1760621892.610083) can2 353#0C480DB7000008
(1760621892.628168) can2 2F1#0304F3493090A61E
(1760621892.646779) can2 261#4F4B333830202020
(1760621892.647890) can2 263#FD9CC5AE2447034E
(1760621892.649911) can2 351#00591B0010FFFF10
(1760621892.649914) can2 621#000080
(1760621892.650919) can2 635#32640E
(1760621892.687822) can2 18F#79ED029135849054
(1760621892.694390) can2 4B0#4552523332303920
(1760621892.697590) can2 271#07
(1760621892.709049) can2 353#0C480DB7000008
(1760621892.742088) can2 0A0#430966DA423A7A3D
(1760621892.746893) can2 261#EB2EF51C801F1FFE
(1760621892.747993) can2 263#4B482B2B3C287520
(1760621892.749001) can2 621#000080
(1760621892.750007) can2 651#C01461002847
(1760621892.751017) can2 351#00591B0010FFFF10
(1760621892.752021) can2 653#000200
(1760621892.756075) can2 0F7#0283291AE7A1680C
(1760621892.781459) can2 07D#B83BDF565E41ECFF
(1760621892.792550) can2 18F#FB5303863D758309
(1760621892.797618) can2 271#07
(1760621892.809052) can2 353#0C480DB7000008
(1760621892.832390) can2 0A0#5388E901F86762D9
(1760621892.846995) can2 261#4F4B393938202020
(1760621892.848091) can2 263#D78CC6AA2ED44E09
(1760621892.850123) can2 351#00591B0010FFFF10
(1760621892.850126) can2 621#000080
(1760621892.851122) can2 635#32640E
(1760621892.857499) can2 18F#D0E9035F8FDE6DF5
(1760621892.872277) can2 0C8#182FF8B0F0ABE4C2
(1760621892.879662) can2 07D#31E1E7DE4452B850
(1760621892.896173) can2 3FF#4E4F444536333020
(1760621892.898191) can2 271#07
(1760621892.902101) can2 0F7#4B61512CAFBA9117
(1760621892.903267) can2 0B4#2FF67417C3B49C34
(1760621892.909048) can2 353#0C480DB7000008
(1760621892.929141) can2 627#0039393939282828
(1760621892.933000) can2 3FF#BDDA40423C24CB7B
(1760621892.947125) can2 261#53454E3139202020
(1760621892.949142) can2 263#4E4F495345363433
(1760621892.950151) can2 351#00591B0010FFFF10
(1760621892.950153) can2 621#000080
(1760621892.973167) can2 0B4#F89DE95EAF172925
(1760621892.997620) can2 271#07
(1760621893.009063) can2 353#0C480DB7000008
(1760621893.015476) can2 0F7#2CC492974CAA7F1C
(1760621893.038254) can2 428#080400000000
(1760621893.041427) can2 1A6#059D5D4FB0B77F1E
(1760621893.047223) can2 261#914F8BCA8FB7990F
(1760621893.049237) can2 263#2673E3D4CE888520
(1760621893.050258) can2 351#00591B0010FFFF10
(1760621893.051259) can2 621#000080
(1760621893.051264) can2 635#32640E
(1760621893.053588) can2 0A0#9ACF7350605A8C96
(1760621893.071131) can2 3E8#434B44324B42425A
(1760621893.072340) can2 661#810112A000000000
(1760621893.097576) can2 271#07
(1760621893.109010) can2 353#0C480DB7000008
(1760621893.110019) can2 0B4#36158E94FEADDB91
(1760621893.119210) can2 2F1#0206A06961C15A96
(1760621893.122844) can2 0F7#A1534A3B201BA49A
(1760621893.133010) can2 0C8#080CAF9423CB69A4
(1760621893.147338) can2 261#4E4F444534303220
(1760621893.149351) can2 263#9F5FCAA27118ED63
(1760621893.150360) can2 351#00591B0010FFFF10
(1760621893.151386) can2 621#000080
(1760621893.197615) can2 271#07
(1760621893.204842) can2 0B4#C6FBA9A7A90105B0
(1760621893.207602) can2 200#3DC0B65742F12187
(1760621893.209618) can2 353#0C480DB7000008
(1760621893.216578) can2 07D#1C25487720DCEF3B
(1760621893.244414) can2 4B0#4750533632312020
(1760621893.247516) can2 261#0E4B3E11C3D8EB90
(1760621893.249525) can2 263#3CF8AAC7B679E453
(1760621893.249527) can2 60E#0A00
(1760621893.250533) can2 651#C01461002847
(1760621893.251542) can2 351#00591B0010FFFF10
(1760621893.252550) can2 621#000080
(1760621893.253561) can2 623#0015390817102025
(1760621893.254571) can2 635#32640E
(1760621893.255583) can2 653#000200
(1760621893.256589) can2 0B4#F9624371AE6FC3B4
(1760621893.266585) can2 0F7#2C7A27941BEC4327
(1760621893.297587) can2 271#07
(1760621893.309045) can2 353#0C480DB7000008
(1760621893.347612) can2 261#53454E3937302020
(1760621893.349626) can2 263#BF57FE9C1FA928B9
(1760621893.350647) can2 351#00591B0010FFFF10
(1760621893.351646) can2 621#000080
(1760621893.397650) can2 271#07
(1760621893.407229) can2 18F#BB99007A076D7AF4
(1760621893.409251) can2 353#0C480DB7000008
(1760621893.429116) can2 627#0039393939282828
(1760621893.430124) can2 3FF#EA7945967FAEABA8
(1760621893.433596) can2 1A6#0C345FB4850E56BD
(1760621893.441725) can2 0F7#5BABB640A607AADA
(1760621893.447728) can2 261#703494B6DD779BF2
(1760621893.449746) can2 263#FCB65B119A6F1E69
(1760621893.450753) can2 351#00591B0010FFFF10
(1760621893.451777) can2 621#000080
(1760621893.451779) can2 635#32640E
(1760621893.497568) can2 271#07
(1760621893.500680) can2 0A0#0091C485998FA821
(1760621893.507461) can2 3FF#2006EBEC7801DBBB
(1760621893.509478) can2 353#0C480DB7000008
(1760621893.521335) can2 0C8#74321EB68B374AA1
(1760621893.530635) can2 0B4#AE5991EA0D93FF77
(1760621893.538246) can2 428#080400000000
(1760621893.547815) can2 261#3B49733C2B454725
(1760621893.549833) can2 263#A3CCB50850665BF2
(1760621893.550842) can2 351#00591B0010FFFF10
(1760621893.551846) can2 0A0#68BD802ACEEFE4F0
(1760621893.552854) can2 0F7#A28752029B7DC6BF
(1760621893.553861) can2 621#000080
(1760621893.571783) can2 661#810112A000000000
(1760621893.582493) can2 2F1#05029E73FDC5C28D
(1760621893.597568) can2 271#07
(1760621893.598886) can2 18F#27460387DD2686EC
(1760621893.609011) can2 353#0C480DB7000008
(1760621893.647940) can2 261#88E33C10CF897EA7
(1760621893.649958) can2 263#4F4B323431202020
(1760621893.650970) can2 351#00591B0010FFFF10
(1760621893.651975) can2 621#000080
(1760621893.651977) can2 635#32640E
(1760621893.664178) can2 0F7#536B0C4D91FC7552
(1760621893.669695) can2 2F1#04071368B90AE999
(1760621893.697592) can2 271#07
(1760621893.708541) can2 353#0C480DB7000008
(1760621893.715041) can2 4B0#4750533739363220
(1760621893.748046) can2 261#4E4F444533343020
(1760621893.750063) can2 263#2566F18741AA76B4
(1760621893.750066) can2 621#000080
(1760621893.751071) can2 651#C01461002847
(1760621893.752127) can2 351#00591B0010FFFF10
(1760621893.753135) can2 653#000200
(1760621893.797840) can2 0F7#0AB20C335A50346A
(1760621893.798854) can2 271#07
(1760621893.799861) can2 3FF#3142A34EE135B249
(1760621893.808983) can2 353#0C480DB7000008
(1760621893.811742) can2 07D#5BC24DD9E48988EE
(1760621893.849070) can2 261#3B49733C2B454725
(1760621893.850074) can2 263#50494E4735313020
(1760621893.851089) can2 351#00591B0010FFFF10
(1760621893.852094) can2 621#000080
(1760621893.852096) can2 635#32640E
(1760621893.873887) can2 1A6#0FCB6152888E543D
(1760621893.887523) can2 0C8#B354D53A06C774BF
(1760621893.890810) can2 4B0#4C4F473236393020
(1760621893.897527) can2 271#07
(1760621893.904801) can2 0F7#3C5AB718CBDB2737
(1760621893.908971) can2 353#0C480DB7000008
(1760621893.929123) can2 627#0039393939282828
(1760621893.947517) can2 200#4F4B383534202020
(1760621893.949531) can2 261#7D4BC06C08733FC8
(1760621893.950555) can2 263#02368277ECF0BCDB
(1760621893.951554) can2 351#00591B0010FFFF10
(1760621893.952555) can2 621#000080
(1760621893.997560) can2 271#07
(1760621894.009018) can2 353#0C480DB7000008
(1760621894.038200) can2 428#080400000000
(1760621894.047853) can2 621#000080
(1760621894.049873) can2 261#7BEF74D3C971197C
(1760621894.050882) can2 263#7EB7871D626BD73B
(1760621894.051890) can2 351#00591B0010FFFF10
(1760621894.052894) can2 635#32640E
(1760621894.056096) can2 2F1#030463608DB65406
(1760621894.062059) can2 0F7#994621A645EF3E9D
(1760621894.071862) can2 661#810112A000000000
(1760621894.080067) can2 4B0#4C4F473238343020
(1760621894.085004) can2 0B4#1CF959AA0C31E704
(1760621894.092312) can2 18F#2CC4015C98AE188F
(1760621894.097527) can2 271#07
(1760621894.109005) can2 353#0C480DB7000008
(1760621894.127314) can2 0A0#7982875A9B896E32
(1760621894.129835) can2 1A6#0AD050F862A02702
(1760621894.147799) can2 621#000080
(1760621894.149816) can2 261#4F4B333138202020
(1760621894.150825) can2 263#8FCE6C9B9950AB20
(1760621894.151832) can2 351#00591B0010FFFF10
(1760621894.155501) can2 3FF#E7DC357B3AD11EAA
(1760621894.197546) can2 271#07
(1760621894.208949) can2 353#0C480DB7000008
(1760621894.214817) can2 0F7#4D7D3A50D9B4E085
(1760621894.219761) can2 07D#15751EE0C2F0D31E
(1760621894.248516) can2 60E#0A00
(1760621894.249526) can2 261#AEABAA5257DE8247
(1760621894.250540) can2 263#BD5EE08F3EA9C8E4
(1760621894.251548) can2 351#00591B0010FFFF10
(1760621894.252555) can2 651#C01461002847
(1760621894.253574) can2 621#000080
(1760621894.254574) can2 623#0015390917102025
(1760621894.255596) can2 635#32640E
(1760621894.255598) can2 653#000200
(1760621894.273673) can2 0C8#DE0405FB3D2CE6B4
(1760621894.293253) can2 2F1#030091370B141D0F
(1760621894.297487) can2 271#07
(1760621894.308958) can2 353#0C480DB7000008
(1760621894.335654) can2 2F1#0502A26BA473948A
(1760621894.347783) can2 621#000080
(1760621894.349827) can2 351#00591B0010FFFF10
(1760621894.350827) can2 261#54454D5039313420
(1760621894.351829) can2 263#B1A4A87D464E9489
(1760621894.376826) can2 0F7#06735C9998ABB757
(1760621894.394123) can2 4B0#4750533936393520
(1760621894.397528) can2 271#07
(1760621894.405255) can2 3FF#50494E4731312020
(1760621894.408953) can2 353#0C480DB7000008
(1760621894.429059) can2 627#0039393939282828
(1760621894.447808) can2 621#000080
(1760621894.449831) can2 351#00591B0010FFFF10
(1760621894.450850) can2 261#54454D5035353320
(1760621894.451840) can2 635#32640E
(1760621894.452849) can2 263#CD08661EFEF61B01
(1760621894.479146) can2 0F7#B26F1C7924E29331
(1760621894.497507) can2 271#07
(1760621894.499606) can2 1A6#045F652C96DFC851
(1760621894.508959) can2 353#0D480DB7000009
(1760621894.524586) can2 2F1#06066259F23009E4
(1760621894.528961) can2 353#0C480DB7000008
(1760621894.538149) can2 428#080400000000
(1760621894.547773) can2 621#000080
(1760621894.549811) can2 351#00591B0010FFFF10
(1760621894.550818) can2 261#B58D925A0104BAAC
(1760621894.551836) can2 263#9AD5E347DBD746AD
(1760621894.571967) can2 661#810112A000000000
(1760621894.574251) can2 0C8#093DFC5571617330
(1760621894.589713) can2 18F#4B2B01CC85A26291
(1760621894.597505) can2 271#07
(1760621894.608632) can2 0F7#216240089DFB891B
(1760621894.628919) can2 353#0C480DB7000008
(1760621894.632682) can2 0A0#EBD7863A9D1548E2
(1760621894.647781) can2 621#000080
(1760621894.649804) can2 351#00591B0010FFFF10
(1760621894.650809) can2 261#53454E3233342020
(1760621894.651815) can2 263#CA8FA7BC7926FA7A
(1760621894.652841) can2 635#32640E
(1760621894.672093) can2 0B4#BF7D56D1A1ACAFC4
(1760621894.697520) can2 271#07
(1760621894.728974) can2 353#0C480DB7000008
(1760621894.733380) can2 07D#F9C33F3A84427147
(1760621894.747982) can2 651#C01461002847
(1760621894.748996) can2 621#000080
(1760621894.750008) can2 261#F188286BE1B6FD41
(1760621894.752018) can2 263#502ABDD2FDEBAE3E
(1760621894.753030) can2 351#00591B0010FFFF10
(1760621894.753032) can2 653#000200
(1760621894.773872) can2 0B4#0A4CC837D82C1D77
(1760621894.778229) can2 0F7#3B967F046FA56892
(1760621894.797508) can2 271#07
(1760621894.814738) can2 1A6#101A5DCBA19B9777
(1760621894.828976) can2 353#0C480DB7000008
(1760621894.842030) can2 4B0#4657343337392020
(1760621894.844000) can2 2F1#0502995B1F69DB53
(1760621894.847835) can2 621#000080
(1760621894.849854) can2 351#00591B0010FFFF10
(1760621894.850868) can2 261#235182ED6B0BDCF5
(1760621894.851876) can2 263#13EB4321868F46ED
(1760621894.852886) can2 635#32640E
(1760621894.860246) can2 200#CEF2DA782B4AF196
(1760621894.881746) can2 3E8#355A383159394154
(1760621894.897497) can2 271#07
(1760621894.903730) can2 3FF#C0781029229877D3
(1760621894.908011) can2 4B0#4750533737353320
(1760621894.924171) can2 0F7#4D4F996152EB730F
(1760621894.928940) can2 627#0039393939282828
(1760621894.929945) can2 353#0C480DB7000008
(1760621894.947748) can2 621#000080
(1760621894.949765) can2 351#00591B0010FFFF10
(1760621894.950773) can2 261#968E0CD4AC8135AF
(1760621894.951781) can2 263#53454E3431202020
(1760621894.997526) can2 271#07
(1760621895.007992) can2 2F1#0102CA5F09DBCD8E
(1760621895.028898) can2 353#0C480DB7000008
(1760621895.034127) can2 0C8#C80EB1B76190C1B5
(1760621895.037574) can2 0F7#4A616D6FE2782FF6
(1760621895.038616) can2 428#080400000000
(1760621895.041737) can2 0A0#952098D1A495912F
(1760621895.047778) can2 621#000080
(1760621895.049799) can2 351#00591B0010FFFF10
(1760621895.050806) can2 261#53454E3532392020
(1760621895.051812) can2 263#73BB4EE7853B1413
(1760621895.052819) can2 635#32640E
(1760621895.068533) can2 18F#5E2C019F4599E1BF
(1760621895.072083) can2 661#810112A000000000
(1760621895.097457) can2 271#07
(1760621895.100177) can2 4B0#4C4F473933373220
(1760621895.101313) can2 2F1#0403AD62856D0271
(1760621895.124202) can2 07D#C3DD230AAFA0BFF1
(1760621895.128914) can2 353#0C480DB7000008
(1760621895.137242) can2 3FF#4E4F495345353430
(1760621895.147724) can2 621#000080
(1760621895.149747) can2 351#00591B0010FFFF10
(1760621895.150746) can2 261#1DA5FA9D86996556
(1760621895.151756) can2 263#11248AC1B5D877B2
(1760621895.172549) can2 4B0#4750533737313820
(1760621895.186006) can2 0F7#B85B340E74373B35
(1760621895.192620) can2 0B4#B2626FF30E006CAE
(1760621895.193797) can2 07D#AAA7D7572D2E5728
(1760621895.197496) can2 271#07
(1760621895.228920) can2 353#0C480DB7000008
(1760621895.248473) can2 60E#0A00
(1760621895.249502) can2 651#C01461002847
(1760621895.250500) can2 351#00591B0010FFFF10
(1760621895.251501) can2 261#6472AF1402C7A126
(1760621895.252514) can2 263#53454E3238202020
(1760621895.253528) can2 621#000080
(1760621895.254534) can2 623#0015391017102025
(1760621895.255554) can2 635#32640E
(1760621895.255556) can2 653#000200
(1760621895.256841) can2 1A6#0BE853B206952E91
(1760621895.297465) can2 271#07
(1760621895.311451) can2 0F7#71689A9DF6D1990D
(1760621895.328901) can2 353#0C480DB7000008
(1760621895.347926) can2 0C8#4913E38BBE337D66
(1760621895.349944) can2 351#00591B0010FFFF10
(1760621895.350952) can2 261#53454E3734392020
(1760621895.351960) can2 263#53454E3235202020
(1760621895.352969) can2 621#000080
(1760621895.363548) can2 0A0#5AB3AA51493C6739
(1760621895.375063) can2 18F#4264009AF5464F04
(1760621895.397453) can2 271#07
(1760621895.422695) can2 200#A0EEE9DB09B32075
(1760621895.428888) can2 627#0039393939282828
(1760621895.429893) can2 353#0C480DB7000008
(1760621895.435094) can2 0F7#0F1FAF98E988C53E
(1760621895.447735) can2 621#000080
(1760621895.449760) can2 351#00591B0010FFFF10
(1760621895.449765) can2 635#32640E
(1760621895.451773) can2 261#96CF2D5DEF0178B5
(1760621895.452780) can2 263#C4B981DC077B67D9
(1760621895.453787) can2 4B0#4552523436303620
(1760621895.473519) can2 3E8#3550304B46443941
(1760621895.497456) can2 271#07
(1760621895.503262) can2 2F1#0606A34B2F4A5B40
(1760621895.528944) can2 353#0C480DB7000008
(1760621895.537369) can2 3FF#09B9291EEF227E24
(1760621895.538397) can2 428#080400000000
(1760621895.541157) can2 07D#B7FD12105251AA13
(1760621895.547713) can2 621#000080
(1760621895.549734) can2 351#00591B0010FFFF10
(1760621895.550744) can2 261#F3E0DD4FAEC473A5
(1760621895.551764) can2 263#E9F06448260A8C74
(1760621895.553028) can2 0F7#AE48418410D780E1
(1760621895.572199) can2 661#810112A000000000
(1760621895.597444) can2 271#07
(1760621895.623657) can2 1A6#032F6B472FFEF1C7
(1760621895.628894) can2 353#0C480DB7000008
(1760621895.647770) can2 621#000080
(1760621895.649781) can2 351#00591B0010FFFF10
(1760621895.649784) can2 635#32640E
(1760621895.650804) can2 261#D23C69D1DFB668B6
(1760621895.651957) can2 263#EE1491FC0DE8E292
(1760621895.654168) can2 0C8#231FB5AF3B331B98
(1760621895.697467) can2 271#07
(1760621895.698589) can2 0B4#1A50BD1157A04465
(1760621895.716810) can2 0F7#70489922279D2608
(1760621895.728900) can2 353#0C480DB7000008
(1760621895.747935) can2 651#C01461002847
(1760621895.748958) can2 621#000080
(1760621895.749956) can2 351#00591B0010FFFF10
(1760621895.751974) can2 261#CE35B53D81E80EE2
(1760621895.752979) can2 263#4E4F444534353220
(1760621895.752981) can2 653#000200
(1760621895.755293) can2 18F#269902B8A2800B29
(1760621895.797413) can2 271#07
(1760621895.828848) can2 353#0C480DB7000008
(1760621895.842857) can2 0A0#B08C9A2127520213
(1760621895.847748) can2 621#000080
(1760621895.849746) can2 351#00591B0010FFFF10
(1760621895.849751) can2 635#32640E
(1760621895.851782) can2 261#9FBEBEA159FF87CC
(1760621895.852781) can2 263#10F1AA87584F8516
(1760621895.862310) can2 0F7#19C6192BCEEA4427
(1760621895.876733) can2 4B0#4750533536303420
(1760621895.878935) can2 07D#A539198767FEF690
(1760621895.897413) can2 271#07
(1760621895.922786) can2 1A6#102C4D6A3748B7BD
(1760621895.927797) can2 0A0#E0476A791A1B62E9
(1760621895.929817) can2 353#0C480DB7000008
(1760621895.930828) can2 627#0039393939282828
(1760621895.934850) can2 0C8#AE38696791A55463
(1760621895.935995) can2 3FF#F04B15D96BA30A87
(1760621895.947680) can2 621#000080
(1760621895.949697) can2 351#00591B0010FFFF10
(1760621895.950912) can2 261#6A31CB2C41982B51
(1760621895.952055) can2 263#991A1954278F8165
(1760621895.967017) can2 18F#7EBF012724E40644
(1760621895.969228) can2 0F7#87976C8B6D2D4732
(1760621895.997427) can2 271#07
(1760621896.028868) can2 353#0C480DB7000008
(1760621896.038073) can2 428#080400000000
(1760621896.045808) can2 18F#F8AB02D77A7547AA
(1760621896.047690) can2 621#000080
(1760621896.049706) can2 351#00591B0010FFFF10
(1760621896.049708) can2 635#32640E
(1760621896.051725) can2 261#7702860EA763F12F
(1760621896.052729) can2 263#E6810536E3DAF6D2
(1760621896.070557) can2 2F1#00031075CC95B9BB
(1760621896.072307) can2 661#810112A000000000
(1760621896.097399) can2 271#07
(1760621896.101099) can2 07D#F7CF45503B5C9125
(1760621896.127049) can2 4B0#4552523331373720
(1760621896.129063) can2 353#0C480DB7000008
(1760621896.131832) can2 0B4#EBD81FC2A3FC276E
(1760621896.134895) can2 0A0#F7E29F4B5CC1A1CC
(1760621896.141508) can2 0F7#2624976F10444679
(1760621896.147672) can2 621#000080
(1760621896.149693) can2 351#00591B0010FFFF10
(1760621896.151152) can2 261#4F4B313239202020
(1760621896.152298) can2 263#6A4A93A94E28F7C3
(1760621896.197379) can2 271#07
(1760621896.208397) can2 1A6#099B5532AE693788
(1760621896.213707) can2 4B0#4C4F473530312020
(1760621896.228834) can2 353#0C480DB7000008
(1760621896.230052) can2 200#54454D5039373020
(1760621896.248397) can2 60E#0A00
(1760621896.249412) can2 651#C01461002847
(1760621896.250429) can2 351#00591B0010FFFF10
(1760621896.251428) can2 621#000080
(1760621896.252437) can2 261#7397FB693BBC32E8
(1760621896.253450) can2 263#2D9BA544DF74259D
(1760621896.254454) can2 623#0015391117102025
(1760621896.255462) can2 635#32640E
(1760621896.255463) can2 653#000200
(1760621896.297431) can2 271#07
(1760621896.317687) can2 0F7#99522F23C34C2B4C
(1760621896.328882) can2 353#0C480DB7000008
(1760621896.338681) can2 0C8#575B561EF63CAC91
(1760621896.347662) can2 621#000080
(1760621896.349686) can2 351#00591B0010FFFF10
(1760621896.351529) can2 261#3B49733C2B454725
(1760621896.352683) can2 263#50494E4738313320
(1760621896.374345) can2 0A0#A395481B61AAD9CE
(1760621896.397399) can2 271#07
(1760621896.428853) can2 627#0039393939282828
(1760621896.429866) can2 353#0C480DB7000008
(1760621896.447733) can2 3FF#50494E4732333020
(1760621896.449760) can2 351#00591B0010FFFF10
(1760621896.449762) can2 621#000080
(1760621896.450765) can2 635#32640E
(1760621896.451772) can2 261#4F4B393420202020
(1760621896.452789) can2 263#39449EB49DC30FF5
(1760621896.493340) can2 0F7#16060218F845C87A
(1760621896.497415) can2 271#07
(1760621896.503505) can2 3FF#427600AC3C96017A
(1760621896.512873) can2 1A6#062269B07ED6531D
(1760621896.528840) can2 353#0C480DB7000008
(1760621896.530967) can2 07D#53C2B86988724277
(1760621896.538080) can2 428#080400000000
(1760621896.547667) can2 621#000080
(1760621896.549693) can2 351#00591B0010FFFF10
(1760621896.551819) can2 261#4F4B323120202020
(1760621896.552981) can2 263#4F4B333220202020
(1760621896.572411) can2 661#810112A000000000
(1760621896.575069) can2 2F1#0406D04999196C09
(1760621896.580012) can2 0B4#957D1BA8C7B7895D
(1760621896.597407) can2 271#07
(1760621896.620257) can2 0F7#8A1C861BA9B9CCA0
(1760621896.623142) can2 18F#69A60256B8CAD290
(1760621896.628822) can2 353#0C480DB7000008
(1760621896.647907) can2 0A0#ABA91B7306EF4302
(1760621896.649926) can2 351#00591B0010FFFF10
(1760621896.649930) can2 621#000080
(1760621896.650950) can2 635#32640E
(1760621896.651949) can2 261#7191C0A8BC416F8B
(1760621896.653074) can2 263#0D429D59BB2CB515
(1760621896.662024) can2 0C8#ED14A56D1F059035
(1760621896.676342) can2 200#000E5772EF1CC87C
(1760621896.690982) can2 3FF#4E4F444534333120
(1760621896.697388) can2 271#07
(1760621896.728829) can2 353#0C480DB7000008
(1760621896.747854) can2 651#C01461002847
(1760621896.748861) can2 621#000080
(1760621896.749867) can2 351#00591B0010FFFF10
(1760621896.750880) can2 653#000200
(1760621896.752061) can2 261#2421E4304AA06AF6
(1760621896.753205) can2 263#4E4F444539373520
(1760621896.787705) can2 4B0#4657313630372020
(1760621896.797390) can2 271#07
(1760621896.798526) can2 0F7#2A36799AF331C742
(1760621896.828834) can2 353#0C480DB7000008
(1760621896.847678) can2 621#000080
(1760621896.849680) can2 351#00591B0010FFFF10
(1760621896.849684) can2 635#32640E
(1760621896.852183) can2 261#0F403EC5D3718BB2
(1760621896.853295) can2 263#8C86D2486CC01BC9
(1760621896.897386) can2 271#07
(1760621896.915281) can2 3FF#53FC8AE6382CED2D
(1760621896.920023) can2 2F1#01032145AA91DEE6
(1760621896.928811) can2 627#0039393939282828
(1760621896.929820) can2 353#0C480DB7000008
(1760621896.930840) can2 1A6#0F4B51455030E46D
(1760621896.934319) can2 0F7#26377A02D9ADEAF3
(1760621896.942634) can2 0C8#A31480B384D62FB1
(1760621896.947631) can2 621#000080
(1760621896.949646) can2 351#00591B0010FFFF10
(1760621896.952321) can2 261#4F4B353339202020
(1760621896.953466) can2 263#1ECD792B2DF0884A
(1760621896.997343) can2 271#07
(1760621897.019933) can2 3FF#4E4F444531353620
(1760621897.021620) can2 0A0#8C10A9858D92AA53
(1760621897.028785) can2 353#0C480DB7000008
(1760621897.029793) can2 07D#6DF8E820957FCEAA
(1760621897.038032) can2 428#080400000000
(1760621897.047638) can2 621#000080
(1760621897.049662) can2 351#00591B0010FFFF10
(1760621897.049665) can2 635#32640E
(1760621897.052713) can2 261#3B49733C2B454725
(1760621897.053721) can2 263#53454E3734302020
(1760621897.072517) can2 661#810112A000000000
(1760621897.084356) can2 0F7#7AAD2F0A4E01C00B
(1760621897.097378) can2 271#07
(1760621897.104880) can2 2F1#00060E29CB25C450
(1760621897.128825) can2 353#0C480DB7000008
(1760621897.143257) can2 0B4#5753A636B1552364
(1760621897.147626) can2 621#000080
(1760621897.149667) can2 351#00591B0010FFFF10
(1760621897.152510) can2 261#4E4F444536202020
(1760621897.153632) can2 263#C66A688C9FCAB884
(1760621897.154767) can2 3E8#55383556394E3450
(1760621897.197356) can2 271#07
(1760621897.207114) can2 18F#955901433B8ED487
(1760621897.212109) can2 0F7#C59801433EDDFE25
(1760621897.228794) can2 353#0C480DB7000008
(1760621897.234294) can2 0C8#DC0689384CCD999B
(1760621897.248405) can2 60E#0A00
(1760621897.249415) can2 651#C01461002847
(1760621897.250425) can2 351#00591B0010FFFF10
(1760621897.251433) can2 621#000080
(1760621897.252444) can2 623#0015391217102025
(1760621897.253461) can2 261#4F4B323435202020
(1760621897.254485) can2 263#4E4F444538303820
(1760621897.255492) can2 635#32640E
(1760621897.255494) can2 653#000200
(1760621897.273358) can2 3FF#575990720E3190EA
(1760621897.297359) can2 271#07
(1760621897.303089) can2 4B0#4657373431352020
(1760621897.328759) can2 353#0C480DB7000008
(1760621897.345340) can2 3FF#8082CBDCA7005BC2
(1760621897.346496) can2 0F7#B943512823832894
(1760621897.347611) can2 621#000080
(1760621897.349622) can2 351#00591B0010FFFF10
(1760621897.352780) can2 261#8F2CBBBDDCC49F3E
(1760621897.353938) can2 263#4F4B383431202020
(1760621897.369290) can2 1A6#0FE64630BD79BAA5
(1760621897.381237) can2 0B4#3EBD361BEC55F669
(1760621897.385237) can2 200#08D0DD3FC89F56F4
(1760621897.397315) can2 271#07
(1760621897.418259) can2 07D#B0FD9823F8CB33E9
(1760621897.419827) can2 3FF#4E4F444531373920
(1760621897.428760) can2 627#0039393939282828
(1760621897.429775) can2 353#0C480DB7000008
(1760621897.447617) can2 621#000080
(1760621897.449618) can2 351#00591B0010FFFF10
(1760621897.449624) can2 635#32640E
(1760621897.452868) can2 261#3B49733C2B454725
(1760621897.454000) can2 263#4E4F444537393520
(1760621897.456844) can2 0F7#B24904A7CF99D740
(1760621897.497314) can2 271#07
(1760621897.518245) can2 2F1#0403965E3C034D79
(1760621897.528797) can2 353#0C480DB7000008
(1760621897.537995) can2 428#080400000000
(1760621897.547581) can2 621#000080
(1760621897.549601) can2 0C8#290EDB61767C90A3
(1760621897.550628) can2 351#00591B0010FFFF10
(1760621897.552999) can2 261#4E4F495345383833
(1760621897.554124) can2 263#A81C73A464346C8B
(1760621897.569939) can2 0F7#5466C03FD285A6BB
(1760621897.572629) can2 661#810112A000000000
(1760621897.597318) can2 271#07
(1760621897.598919) can2 0A0#4319F3CF0F927331
(1760621897.628757) can2 353#0C480DB7000008
(1760621897.647627) can2 621#000080
(1760621897.649630) can2 351#00591B0010FFFF10
(1760621897.649634) can2 635#32640E
(1760621897.653108) can2 261#4E4F444539333620
(1760621897.654255) can2 263#EF3416EF26375171
(1760621897.677984) can2 07D#E67023C6F27F7BE5
(1760621897.680464) can2 0F7#05993B3FCE9C3547
(1760621897.697319) can2 271#07
(1760621897.715592) can2 2F1#02053F75D3F2749E
(1760621897.724131) can2 18F#BA3F00248E69F9E6
(1760621897.728756) can2 353#0C480DB7000008
(1760621897.747786) can2 651#C01461002847
(1760621897.748794) can2 621#000080
(1760621897.749802) can2 351#00591B0010FFFF10
(1760621897.750811) can2 653#000200
(1760621897.753262) can2 261#78E66F7CA0FCC8AC
(1760621897.754412) can2 263#FABE870356732A3E
(1760621897.767172) can2 0B4#0CE358B5C3DA6960
(1760621897.789580) can2 0F7#B9AD5C6674430175
(1760621897.797085) can2 1A6#07F24A871DDE516B
(1760621897.798093) can2 271#07
(1760621897.815261) can2 0C8#2A2163675D4AB044
(1760621897.821711) can2 3FF#4F4B363734202020
(1760621897.828762) can2 353#0C480DB7000008
(1760621897.836572) can2 4B0#4552523632323820
(1760621897.847638) can2 621#000080
(1760621897.849643) can2 351#00591B0010FFFF10
(1760621897.849647) can2 635#32640E
(1760621897.853388) can2 261#6D7E188114440189
(1760621897.854539) can2 263#3FAE4C75B824084A
(1760621897.884954) can2 4B0#4254323137382020
(1760621897.897333) can2 271#07
(1760621897.920026) can2 200#01B28BB6226C122E
(1760621897.928782) can2 627#0039393939282828
(1760621897.929790) can2 353#0C480DB7000008
(1760621897.932119) can2 0F7#4BC4090D79600591
(1760621897.933283) can2 07D#0996B23EFE97819A
(1760621897.947564) can2 621#000080
(1760621897.949580) can2 351#00591B0010FFFF10
(1760621897.953519) can2 261#53454E3338202020
(1760621897.954649) can2 263#54454D5039363120
(1760621897.961075) can2 0B4#342022D0934FED82
(1760621897.989162) can2 2F1#03014C473D4903E9
(1760621897.997323) can2 271#07
(1760621898.028746) can2 353#0C480DB7000008
(1760621898.037975) can2 428#080400000000
(1760621898.046648) can2 0F7#7576552FE612288A
(1760621898.047651) can2 621#000080
(1760621898.049656) can2 351#00591B0010FFFF10
(1760621898.049657) can2 635#32640E
(1760621898.053664) can2 261#4F4B383030202020
(1760621898.054823) can2 263#710ED601E8658E7E
(1760621898.065669) can2 2F1#01033C53EA6F906F
(1760621898.072751) can2 661#810112A000000000
(1760621898.083229) can2 4B0#4C4F473739303520
(1760621898.095171) can2 0C8#3B5EA0539A1C9577
(1760621898.097364) can2 271#07
(1760621898.112792) can2 3FF#54454D5035313820
(1760621898.128711) can2 353#0C480DB7000008
(1760621898.147578) can2 621#000080
(1760621898.149596) can2 351#00591B0010FFFF10
(1760621898.153755) can2 261#1160E67DD91EE28E
(1760621898.154906) can2 263#50494E4735363820
(1760621898.163358) can2 0A0#6D9444E9D5CBE366
(1760621898.169359) can2 0B4#DF89C3858E382778
(1760621898.175740) can2 1A6#0B625484CB7B4775
(1760621898.190700) can2 0F7#6F442A174488C589
(1760621898.197291) can2 271#07
(1760621898.218861) can2 18F#09E701924F8954E3
(1760621898.228705) can2 353#0C480DB7000008
(1760621898.231929) can2 2F1#020729515AD7FF37
(1760621898.248290) can2 60E#0A00
(1760621898.249299) can2 651#C01461002847
(1760621898.250311) can2 351#00591B0010FFFF10
(1760621898.251319) can2 621#000080
(1760621898.252326) can2 623#0015391317102025
(1760621898.253336) can2 635#32640E
(1760621898.253340) can2 653#000200
(1760621898.254348) can2 261#4F4B373530202020
(1760621898.255414) can2 263#E1D9AE7E92D50370
(1760621898.276661) can2 2F1#0506DC53DD91C98F
(1760621898.289121) can2 4B0#4254323330352020
(1760621898.297305) can2 271#07
(1760621898.328713) can2 353#0C480DB7000008
(1760621898.329723) can2 0F7#195F59B53B24D3F4
(1760621898.347551) can2 621#000080
(1760621898.349570) can2 351#00591B0010FFFF10
(1760621898.354003) can2 261#53454E3132302020
(1760621898.355130) can2 263#81B4727430CA4B1D
(1760621898.398058) can2 07D#CF9F6D48BBC204F7
(1760621898.398059) can2 271#07
(1760621898.420918) can2 2F1#0602CA432D76D42B
(1760621898.428711) can2 627#0039393939282828
(1760621898.429720) can2 353#0C480DB7000008
(1760621898.435044) can2 0F7#1B17A585AF355ECF
(1760621898.445521) can2 0C8#1905D146A304F2B8
(1760621898.447556) can2 621#000080
(1760621898.449576) can2 351#00591B0010FFFF10
(1760621898.449581) can2 635#32640E
(1760621898.452359) can2 0A0#FB85534E8DD213DA
(1760621898.454114) can2 261#53454E3532332020
(1760621898.455268) can2 263#4B482B2B3C287520
(1760621898.474422) can2 3FF#97640A7E984C1B7C
(1760621898.480867) can2 07D#C55F697933E018E7
(1760621898.497286) can2 271#07
(1760621898.528689) can2 353#0C480DB7000008
(1760621898.537926) can2 428#080400000000
(1760621898.547533) can2 621#000080
(1760621898.549550) can2 351#00591B0010FFFF10
(1760621898.554343) can2 261#F3BAD6BB541CFBAC
(1760621898.555458) can2 263#E95C63D4EA6D9394
(1760621898.569210) can2 4B0#4657343630312020
(1760621898.572893) can2 661#810112A000000000
(1760621898.589995) can2 0F7#81545A168FEABAD5
(1760621898.597236) can2 271#07
(1760621898.602862) can2 07D#F72270CA66C199F7
(1760621898.604943) can2 1A6#0BA768CF35D7892E
(1760621898.628712) can2 353#0C480DB7000008
(1760621898.647556) can2 621#000080
(1760621898.649569) can2 351#00591B0010FFFF10
(1760621898.649573) can2 635#32640E
(1760621898.654445) can2 261#4E4F444531393920
(1760621898.655584) can2 263#54454D5037313320
(1760621898.670352) can2 2F1#0504A1567CCECBFD
(1760621898.694933) can2 18F#D425032F6DD6F1FC
(1760621898.697273) can2 271#07
(1760621898.699591) can2 3FF#DFB799CCDAD4496F
(1760621898.703821) can2 07D#FC6CD4499C87A2B5
(1760621898.728726) can2 353#0C480DB7000008
(1760621898.737033) can2 0A0#D13E087500ED418F
(1760621898.743940) can2 0F7#AB5871AA11BECC2D
(1760621898.747734) can2 651#C01461002847
(1760621898.748745) can2 621#000080
(1760621898.749756) can2 351#00591B0010FFFF10
(1760621898.751770) can2 0B4#D71802B5A845C44E
(1760621898.751772) can2 653#000200
(1760621898.754574) can2 261#3B49733C2B454725
(1760621898.755700) can2 3E8#4645425A4B385456
(1760621898.756830) can2 263#50494E4731352020
(1760621898.763219) can2 200#74CD9542B7073652
(1760621898.798189) can2 271#07
(1760621898.828703) can2 353#0C480DB7000008
(1760621898.836816) can2 0C8#E54CA44B575EEF44
(1760621898.847567) can2 621#000080
(1760621898.849578) can2 0F7#7A3F477292315A37
(1760621898.850588) can2 18F#E261017CF14E808D
(1760621898.851594) can2 351#00591B0010FFFF10
(1760621898.852603) can2 635#32640E
(1760621898.854707) can2 261#12033DAED026CBEF
(1760621898.855874) can2 263#AA7E0C1554FF0BAE
(1760621898.897249) can2 271#07
(1760621898.928665) can2 627#0039393939282828
(1760621898.929681) can2 353#0C480DB7000008
(1760621898.947507) can2 621#000080
(1760621898.949521) can2 2F1#0102AD76E39BBF63
(1760621898.950532) can2 351#00591B0010FFFF10
(1760621898.954821) can2 261#4E4F444534393120
(1760621898.955949) can2 263#4E4F495345373638
(1760621898.963605) can2 0B4#29E00C9C8E1E902A
(1760621898.983875) can2 0F7#AF85C60D014B659A
(1760621898.995961) can2 1A6#06B26805846505E6
(1760621898.997213) can2 271#07
(1760621899.028703) can2 353#0C480DB7000008
(1760621899.037916) can2 428#080400000000
(1760621899.047526) can2 621#000080
(1760621899.049544) can2 351#00591B0010FFFF10
(1760621899.049548) can2 635#32640E
(1760621899.054961) can2 261#53454E3230352020
(1760621899.056112) can2 263#54454D5033383720
(1760621899.073007) can2 661#810112A000000000
(1760621899.097220) can2 271#07
(1760621899.102915) can2 4B0#4657343439392020
(1760621899.123332) can2 0F7#827C6578E15025CA
(1760621899.128669) can2 353#0C480DB7000008
(1760621899.131163) can2 07D#BFCBC49F6C68FAE7
(1760621899.147496) can2 621#000080
(1760621899.149523) can2 351#00591B0010FFFF10
(1760621899.155092) can2 261#50494E4738323020
(1760621899.156219) can2 263#54454D5034343920
(1760621899.171094) can2 2F1#010541788DDA7166
(1760621899.182670) can2 0A0#A280F5B8E6F071D3
(1760621899.186159) can2 0C8#45342FE0B6AE19BF
(1760621899.188472) can2 3FF#E9B7171351EC8DE2
(1760621899.197223) can2 271#07
(1760621899.205119) can2 0B4#6E681AA34AD20366
(1760621899.228666) can2 353#0C480DB7000008
(1760621899.248256) can2 60E#0A00
(1760621899.249277) can2 651#C01461002847
(1760621899.250280) can2 351#00591B0010FFFF10
(1760621899.251290) can2 621#000080
(1760621899.252302) can2 623#0015391417102025
(1760621899.252305) can2 635#32640E
(1760621899.253315) can2 653#000200
(1760621899.255339) can2 261#3B49733C2B454725
(1760621899.256344) can2 263#2CB19A06942EECC3
(1760621899.263799) can2 200#4E4F495345373334
(1760621899.297216) can2 271#07
(1760621899.301920) can2 0F7#B774917E97A59A10
(1760621899.328641) can2 353#0C480DB7000008
(1760621899.332423) can2 07D#B690E5F8A3FE641F
(1760621899.347478) can2 621#000080
(1760621899.349498) can2 351#00591B0010FFFF10
(1760621899.350504) can2 3E8#4E45535453584150
(1760621899.355343) can2 261#4F4B373430202020
(1760621899.356470) can2 263#0D30D5497A103C29
(1760621899.370193) can2 1A6#0DE154F58D982AA2
(1760621899.378358) can2 18F#B5E3007FF8684AF7
(1760621899.397189) can2 271#07
(1760621899.422066) can2 0F7#A7BE163BC9A91892
(1760621899.428668) can2 627#0039393939282828
(1760621899.429676) can2 353#0C480DB7000008
(1760621899.444829) can2 4B0#4C4F473838383420
(1760621899.447512) can2 621#000080
(1760621899.449527) can2 351#00591B0010FFFF10
(1760621899.449531) can2 635#32640E
(1760621899.455408) can2 261#A378668AC5A0E5C8
(1760621899.456540) can2 263#8C07F29584A8C630
(1760621899.497228) can2 271#07
(1760621899.511395) can2 07D#2D4712CD713BBCC3
(1760621899.528684) can2 353#0C480DB7000008
(1760621899.537861) can2 428#080400000000
(1760621899.547480) can2 621#000080
(1760621899.549493) can2 351#00591B0010FFFF10
(1760621899.555619) can2 261#4E4F444533333320
(1760621899.556730) can2 263#4B482B2B3C287520
(1760621899.561921) can2 0F7#B1564093729205E5
(1760621899.573114) can2 661#810112A000000000
(1760621899.577356) can2 18F#9CDA03DEB38F1AA5
(1760621899.597235) can2 271#07
(1760621899.619407) can2 2F1#0401604DFCDDDE6C
(1760621899.620570) can2 200#4E4F444532393720
(1760621899.628662) can2 353#0C480DB7000008
(1760621899.643735) can2 0B4#DAD9FFF5441F48C1
(1760621899.647526) can2 621#000080
(1760621899.649541) can2 351#00591B0010FFFF10
(1760621899.649544) can2 635#32640E
(1760621899.655735) can2 261#3B49733C2B454725
(1760621899.656873) can2 263#1229AB5E0B25941C
(1760621899.661646) can2 18F#E41700EAC124B091
(1760621899.665678) can2 0C8#48648A25CAF24933
(1760621899.666689) can2 3FF#4F4B363820202020
(1760621899.668709) can2 0A0#500F236297D8C5FE
(1760621899.697240) can2 271#07
(1760621899.714364) can2 4B0#4254333435362020
(1760621899.724239) can2 0F7#857C604BF4B50B55
(1760621899.728620) can2 353#0C480DB7000008
(1760621899.735927) can2 07D#BBC4819EB2E7C2A8
(1760621899.747675) can2 651#C01461002847
(1760621899.748682) can2 621#000080
(1760621899.749688) can2 351#00591B0010FFFF10
(1760621899.750698) can2 653#000200
(1760621899.755874) can2 261#53454E3330372020
(1760621899.757024) can2 263#4F4B373731202020
(1760621899.761701) can2 4B0#4254353338322020
(1760621899.797175) can2 271#07
(1760621899.807535) can2 18F#CC8B029B58AEF738
(1760621899.808712) can2 2F1#000426772EC577F6
(1760621899.811814) can2 1A6#02A86A31F81C9F2E
(1760621899.822620) can2 0B4#7D8BFF038A052EA9
(1760621899.828636) can2 353#0C480DB7000008
(1760621899.834501) can2 0F7#3755B581C4D3C86A
(1760621899.847498) can2 621#000080
(1760621899.849514) can2 351#00591B0010FFFF10
(1760621899.849517) can2 635#32640E
(1760621899.856012) can2 261#0A625FC0E9FC3441
(1760621899.857130) can2 263#54454D5032393120
(1760621899.897176) can2 271#07
(1760621899.928629) can2 627#0039393939282828
(1760621899.929639) can2 353#0C480DB7000008
(1760621899.947446) can2 621#000080
(1760621899.949502) can2 351#00591B0010FFFF10
(1760621899.956160) can2 261#597681F522A54FB5
(1760621899.957291) can2 263#50494E4734373620
(1760621899.970877) can2 0B4#342FE51F7119D7A8
(1760621899.993968) can2 07D#F21E6C6223F9475C
(1760621899.997206) can2 271#07
(1760621900.000378) can2 0F7#44BA88A3E253C247
