(1716630487.942995) can0 121#8F02000027507EFE
(1716630487.944809) can0 120#000000070004FF01
(1716630487.944854) can0 107#0000FE0AC1193CC4
(1716630487.944855) can0 0C3#0000000000FD2F00
(1716630487.945175) can0 12B#0D4F802A00000000
(1716630487.946179) can0 0B2#0000000000000000
(1716630487.947190) can0 0A8#7AC39ECC9664860C
(1716630487.948164) can0 176#5B09070000010046
(1716630487.949108) can0 0A7#15A4A186026AC83E
(1716630487.949109) can0 086#1B86FE1F00000000
(1716630487.950062) can0 040#C38E004DC3001425
(1716630487.952620) can0 122#A08B00FE07000078
(1716630487.954573) can0 365#A00214C091026C3C
(1716630487.955593) can0 0C3#0000000000FD2F00
(1716630487.956499) can0 104#0000000018000431
(1716630487.956500) can0 101#0F067D00021C0000
(1716630487.956500) can0 0B2#0000000000000000
(1716630487.957591) can0 0FD#6FD41F0000000400
(1716630487.957593) can0 105#9B08100030020400
(1716630487.957593) can0 106#030B680000000002
(1716630487.958512) can0 116#D2050D10000000FF
(1716630487.958513) can0 0A8#21C4BECC96648C0C
(1716630487.958513) can0 3C7#9200000002400300
(1716630487.959730) can0 0A7#B6A5A186016AC83E
(1716630487.959731) can0 31E#00E03F0000000000
(1716630487.959732) can0 086#3D88FE1F00000000
(1716630487.961026) can0 32C#001F00006C240010
(1716630487.963089) can0 121#8003000027507EFE
(1716630487.963161) can0 120#000000070004FF01
(1716630487.963937) can0 107#0000FE0AC11943C4
(1716630487.964990) can0 385#0000000000000000
(1716630487.964991) can0 0C3#0000000000FD2F00
(1716630487.964991) can0 20F#3B01000000FDFD6C
(1716630487.965932) can0 30B#001B000008000000
(1716630487.965933) can0 0B2#0000000000000000
(1716630487.966793) can0 0A8#93C5BECC9664980C
(1716630487.967781) can0 176#640A070000010046
(1716630487.968972) can0 0A7#88A6A186006AC83E
(1716630487.968973) can0 153#0000FFFFE0FEDF00
(1716630487.969754) can0 086#F58AFE1F00000000
(1716630487.973287) can0 122#6A8C00FE07000078
(1716630487.974277) can0 0C3#0000000000FD2F00
(1716630487.975187) can0 12B#8640802A00000000
(1716630487.975188) can0 101#99077E0002100000
(1716630487.976179) can0 104#0000000018000431
(1716630487.976180) can0 0B2#0000000000000000
(1716630487.976180) can0 0FD#F5D51F0000000400
(1716630487.977171) can0 105#3909100030020400
(1716630487.977171) can0 106#100C680000000002
(1716630487.977172) can0 116#7E060D10000000FF
(1716630487.978161) can0 0A8#C0C6BECC9664A20C
(1716630487.979211) can0 0A7#01A7A186006AC83E
(1716630487.979212) can0 3DD#1810100000470000
(1716630487.980064) can0 086#828CFE1F00000000
(1716630487.983679) can0 121#C704000027507EFE
(1716630487.984896) can0 120#000000070004FF01
(1716630487.986089) can0 107#0000FE0AC1194AC4
(1716630487.986090) can0 3DB#5080110507140198
(1716630487.986092) can0 0C3#0000000000FD2F00
(1716630487.987601) can0 0B2#0000000000000000
(1716630487.988576) can0 0A8#85C7DE0C9764A60C
(1716630487.988578) can0 3BE#8005F701A9400C80
(1716630487.989548) can0 176#800B070000010046
(1716630487.989549) can0 0A7#E1A8A186016AC83E
(1716630487.989550) can0 086#4A8EFE1F00000000
(1716630487.990523) can0 040#A78F004DC3001425
(1716630487.991468) can0 122#6D8D00FE07000078
(1716630487.992340) can0 0C3#0000000000FD2F00
(1716630487.993877) can0 0B2#0000000000000000
(1716630487.994956) can0 0FD#E7D61F0000000400
(1716630487.995975) can0 104#0000000018000431
(1716630487.997002) can0 101#13087E00020D0000
(1716630487.997003) can0 105#B00A100030020400
(1716630487.997004) can0 106#800D690000000002
(1716630487.997876) can0 116#1A070D10000000FF
(1716630487.997877) can0 0A8#CBC8DE0C9764AC0C
(1716630487.998961) can0 0A7#9CA9A186006AC83E
(1716630487.999806) can0 086#6C80FE1F00000000
(1716630488.002759) can0 121#D305000027507EFE
(1716630488.004383) can0 120#000000070004FF01
(1716630488.005338) can0 107#0000FE0AC11951C4
(1716630488.005339) can0 365#A00215C091026C3C
(1716630488.005340) can0 0C3#0000000000FD2F00
(1716630488.006271) can0 12B#F441802A00000000
(1716630488.006272) can0 0B2#0000000000000000
(1716630488.007275) can0 0A8#0DC9DE0C9764B20C
(1716630488.008281) can0 176#9B0C070000010046
(1716630488.009243) can0 0A7#9AAAA186006AC83E
(1716630488.009244) can0 32C#001F00006C240010
(1716630488.009244) can0 086#A482FE1F00000000
(1716630488.010135) can0 31E#00E03F0000000000
(1716630488.012106) can0 122#368E00FE07000078
(1716630488.013172) can0 0C3#0000000000FD2F00
(1716630488.015018) can0 20F#EE02000000FDFD6C
(1716630488.015940) can0 30B#001C000008000000
(1716630488.016926) can0 0B2#0000000000000000
(1716630488.016928) can0 0FD#DDD71F0000000400
(1716630488.016929) can0 104#0000000018000431
(1716630488.017901) can0 101#B8097E0002160000
(1716630488.017902) can0 105#220B100030020400
(1716630488.017902) can0 106#2C0E690000000002
(1716630488.018599) can0 116#58080D10000000FF
(1716630488.018599) can0 392#0000FEFEFE000048
(1716630488.018600) can0 0A8#9DCAFE0C9764BC0C
(1716630488.019603) can0 0A7#F4ABA186006AC83E
(1716630488.019604) can0 086#D384FE1F00000000
(1716630488.022562) can0 121#1706000027507EFE
(1716630488.023509) can0 120#000000070004FF01
(1716630488.024643) can0 107#0000FE0AC11958C4
(1716630488.024644) can0 0C3#0000000000FD2F00
(1716630488.025735) can0 0B2#0000000000000000
(1716630488.027103) can0 0A8#C2CBFE0C9764C60C
(1716630488.028263) can0 176#B30D070000010046
(1716630488.029184) can0 0A7#4BACA186006AC83E
(1716630488.031189) can0 086#1B86FE1F00000000
(1716630488.032575) can0 040#F180004DC3001426
(1716630488.033474) can0 122#598F00FE07000078
(1716630488.034464) can0 11B#00A0800100000000
(1716630488.034466) can0 391#718D225A00268027
(1716630488.034466) can0 0C3#0000000000FD2F00
(1716630488.035548) can0 12B#5042802A00000000
(1716630488.035550) can0 101#270A7E00021E0000
(1716630488.036630) can0 104#0000000018000431
(1716630488.036631) can0 0B2#0000000000000000
(1716630488.036631) can0 0FD#1AD81F0000000400
(1716630488.037755) can0 105#0E0C100030020400
(1716630488.037756) can0 106#480F690000000002
(1716630488.037757) can0 116#3C090D10000000FF
(1716630488.038979) can0 0A8#ACCCFE0C9764CE0C
(1716630488.038980) can0 0A7#BBADA186006AC83E
(1716630488.040191) can0 086#3D88FE1F00000000
(1716630488.041388) can0 3C0#0E070300
(1716630488.042813) can0 121#4207000027507EFE
(1716630488.043880) can0 120#000000070004FF01
(1716630488.044988) can0 107#0000FE0AC1195FC4
(1716630488.044989) can0 17F00010#2000000000000580
(1716630488.044990) can0 0C3#0000000000FD2F00
(1716630488.046544) can0 5F0#64E4640000640000
(1716630488.046546) can0 6B4#0000000000435132
(1716630488.046547) can0 0B2#0000000000000000
(1716630488.047882) can0 0A8#33CDFE0C9764D40C
(1716630488.048939) can0 176#160E070000010046
(1716630488.049995) can0 0A7#9DAEA186016AC83E
(1716630488.049996) can0 086#F58AFE1F00000000
(1716630488.052678) can0 122#6F8000FE07000078
(1716630488.053348) can0 365#A00215C092026C3C
(1716630488.054628) can0 0C3#0000000000FD2F00
(1716630488.056102) can0 104#0000000018000431
(1716630488.056912) can0 101#D50B7E00021C0000
(1716630488.056913) can0 0B2#0000000000000000
(1716630488.056914) can0 0FD#28D91F0000000400
(1716630488.057953) can0 105#7E0D100030020400
(1716630488.057955) can0 106#0A00690000000002
(1716630488.057955) can0 116#900A0D10000000FF
(1716630488.059240) can0 0A8#09CE1E0D9764DE0C
(1716630488.059241) can0 3C7#FD00000002400300
(1716630488.059242) can0 0A7#EEAFA186006AC83E
(1716630488.060186) can0 31E#00E03F0000000000
(1716630488.060187) can0 086#828CFE1F00000000
(1716630488.060187) can0 32C#001F00006C240010
(1716630488.062443) can0 121#0308000027507EFE
(1716630488.063607) can0 120#000000070004FF01
(1716630488.064637) can0 107#0000FE0AC11966C4
(1716630488.064638) can0 0C3#0000000000FD2F00
(1716630488.064639) can0 20F#9903000000FDFD6C
(1716630488.065815) can0 30B#001D000008000000
(1716630488.065817) can0 12B#0843802A00000000
(1716630488.065818) can0 0B2#0000000000000000
(1716630488.067018) can0 0A8#F9CF1E0D9764E60C
(1716630488.068101) can0 176#9F0F070000010046
(1716630488.069204) can0 0A7#BDA061860066C83E
(1716630488.070523) can0 086#4A8EFE1F00000000
(1716630488.071612) can0 040#9581004DC3001426
(1716630488.072624) can0 122#CA8100FE07000078
(1716630488.073700) can0 0C3#0000000000FD2F00
(1716630488.074777) can0 104#0000000018000431
(1716630488.075932) can0 101#430C7D0002140000
(1716630488.077074) can0 0B2#0000000000000000
(1716630488.077075) can0 0FD#64DA1F0000000400
(1716630488.077076) can0 105#FB0E100030020400
(1716630488.078272) can0 106#6E01690000000002
(1716630488.078275) can0 116#F40B0D10000000FF
(1716630488.078275) can0 0A8#55C01E0D9764F00C
(1716630488.079807) can0 0A7#35A161860066C83E
(1716630488.080627) can0 3DD#1810100000470000
(1716630488.080627) can0 086#6C80FE1F00000000
(1716630488.081827) can0 121#4D09000027507EFE
(1716630488.082984) can0 120#000000070004FF01
(1716630488.084269) can0 107#0000FE0AC1196DC4
(1716630488.085422) can0 3DB#5080110507140198
(1716630488.085423) can0 0C3#0000000000FD2F00
(1716630488.086577) can0 0B2#0000000000000000
(1716630488.087842) can0 0A8#5FC11E0D9764F80C
(1716630488.089283) can0 3BE#9D06F701A9400C80
(1716630488.089284) can0 176#8C00070000010046
(1716630488.090136) can0 0A7#ECA261860166C83E
(1716630488.090138) can0 086#A482FE1F00000000
(1716630488.092296) can0 122#0C8200FE07000078
(1716630488.093420) can0 0C3#0000000000FD2F00
(1716630488.094437) can0 12B#8844802A00000000
(1716630488.095716) can0 101#710D7D00020F0000
(1716630488.096731) can0 104#0000000018000431
(1716630488.096733) can0 0B2#0000000000000000
(1716630488.096734) can0 0FD#4BDB1F0000000400
(1716630488.098028) can0 105#C30F100030020400
(1716630488.098030) can0 106#3602680000000002
(1716630488.098031) can0 116#E70C0D10000000FF
(1716630488.098978) can0 0A8#8BC21E0D9764FC0C
(1716630488.098979) can0 0A7#6DA361860166C83E
(1716630488.099987) can0 086#D384FE1F00000000
(1716630488.102003) can0 121#430A000027507EFE
(1716630488.102943) can0 120#000000070004FF01
(1716630488.104036) can0 107#0000FE0BC11974C4
(1716630488.105385) can0 365#A00215C091026C3C
(1716630488.105387) can0 0C3#0000000000FD2F00
(1716630488.106431) can0 0B2#0000000000000000
(1716630488.107749) can0 0A8#71C33E0D9764020D
(1716630488.108563) can0 176#4B01070000010046
(1716630488.109625) can0 0A7#FAA461860066C83E
(1716630488.109626) can0 32C#001F00006C240010
(1716630488.109627) can0 086#1B86FE1F00000000
(1716630488.110835) can0 31E#00E03F0000000000
(1716630488.110836) can0 5EA#00000036F8FEFB0F
(1716630488.111906) can0 040#D082004DC3001427
(1716630488.112909) can0 1B000010#0050040900322000
(1716630488.112911) can0 122#6B8300FE07000078
(1716630488.114079) can0 0C3#0000000000FD2F00
(1716630488.115546) can0 20F#2D04000000FDFD6C
(1716630488.117273) can0 30B#001E000008000000
(1716630488.117274) can0 101#570E7E0002170000
(1716630488.117274) can0 104#0000000018000431
(1716630488.118282) can0 0B2#0000000000000000
(1716630488.118283) can0 0FD#D2DC1F0000000400
(1716630488.118284) can0 105#DC00100030020400
(1716630488.119151) can0 106#5203680000000002
(1716630488.119152) can0 116#830D0D10000000FF
(1716630488.119154) can0 6B7#9710A204000A0090
(1716630488.121167) can0 392#0000FEFEFE000048
(1716630488.121168) can0 0A8#95C43E0D97640E0D
(1716630488.121169) can0 0A7#81A561860066C83E
(1716630488.122307) can0 086#3D88FE1F00000000
(1716630488.122367) can0 121#010B000027507EFE
(1716630488.123373) can0 120#000000070004FF01
(1716630488.124226) can0 107#0000FE0BC1197BC4
(1716630488.124227) can0 0C3#0000000000FD2F00
(1716630488.125268) can0 12B#2D45802A00000000
(1716630488.126278) can0 0B2#0000000000000000
(1716630488.127411) can0 0A8#03C53E0D97641C0D
(1716630488.128390) can0 176#2202070000010046
(1716630488.129381) can0 0A7#12A661860066C83E
(1716630488.129383) can0 086#F58AFE1F00000000
(1716630488.131601) can0 122#DD8400FE07000078
(1716630488.132496) can0 11B#00A0800100000000
(1716630488.134264) can0 391#6E8D235900268027
(1716630488.135124) can0 0C3#0000000000FD2F00
(1716630488.136094) can0 104#0000000018000431
(1716630488.136096) can0 101#250F7D00021A0000
(1716630488.136097) can0 0B2#0000000000000000
(1716630488.137675) can0 0FD#5BDD1F0000000400
(1716630488.137677) can0 105#1301100030020400
(1716630488.137678) can0 106#B504690000000002
(1716630488.138804) can0 116#2F0E0D10000000FF
(1716630488.138806) can0 0A8#86C65E0D9764280D
(1716630488.140359) can0 0A7#36A761860166C83E
(1716630488.140360) can0 086#828CFE1F00000000
(1716630488.141299) can0 3C0#4F080300
(1716630488.142281) can0 121#540C000027507EFE
(1716630488.143241) can0 120#000000070004FF01
(1716630488.144756) can0 107#0000FE0BC11983C4
(1716630488.144758) can0 0C3#0000000000FD2F00
(1716630488.146383) can0 0B2#0000000000000000
(1716630488.148342) can0 0A8#ABC75E0D97642C0D
(1716630488.148938) can0 176#CF03070000010046
(1716630488.149959) can0 0A7#A3A861860266C83E
(1716630488.149961) can0 086#4A8EFE1F00000000
(1716630488.150998) can0 040#B483004DC3001427
(1716630488.152012) can0 122#778500FE07000078
(1716630488.152946) can0 365#A00215C091026C3C
(1716630488.153907) can0 0C3#0000000000FD2F00
(1716630488.154874) can0 12B#3446802A00000000
(1716630488.156307) can0 101#41007D0002180000
(1716630488.156308) can0 104#0000000018000431
(1716630488.156309) can0 0B2#0000000000000000
(1716630488.157474) can0 0FD#A4DE1F0000000400
(1716630488.157476) can0 105#5702100030020400
(1716630488.157476) can0 106#D105690000000002
(1716630488.158946) can0 116#4B0F0D10000000FF
(1716630488.158947) can0 0A8#21C85E0D9764300D
(1716630488.159971) can0 3C7#9200000002400300
(1716630488.159972) can0 0A7#ABA961860166C83E
(1716630488.159972) can0 086#6C80FE1F00000000
(1716630488.160944) can0 31E#00E03F0000000000
(1716630488.160946) can0 32C#001F00006C240010
(1716630488.163671) can0 121#760D000027507EFE
(1716630488.165564) can0 120#000000070004FF01
(1716630488.165613) can0 107#0000FE0B41198AC4
(1716630488.165659) can0 0C3#0000000000FD2F00
(1716630488.165660) can0 20F#3005000000FDFD6C
(1716630488.165661) can0 30B#001F000008000000
(1716630488.166657) can0 0B2#0000000000000000
(1716630488.168192) can0 0A8#CDC97E4D9764340D
(1716630488.169653) can0 176#6704070000010046
(1716630488.170799) can0 0A7#00AA61860066C83E
(1716630488.170801) can0 153#0000FFFFE0FEDF00
(1716630488.170802) can0 086#A482FE1F00000000
(1716630488.171949) can0 122#CB8600FE07000078
(1716630488.173459) can0 640#00899BC77F600F00
(1716630488.174515) can0 0C3#0000000000FD2F00
(1716630488.175688) can0 104#0000000018000431
(1716630488.176407) can0 101#C6017D0002140000
(1716630488.176408) can0 0B2#0000000000000000
(1716630488.176409) can0 0FD#33DF1F0000000400
(1716630488.177484) can0 105#0403100030020400
(1716630488.177485) can0 106#8906680000000002
(1716630488.177485) can0 116#09000D10000000FF
(1716630488.178554) can0 0A8#FECA7E4D97643E0D
(1716630488.180679) can0 0A7#2CAB6186FF65C83E
(1716630488.180680) can0 3DD#1810100000470000
(1716630488.180681) can0 086#D384FE1F00000000
(1716630488.181460) can0 121#B80E000027507EFE
(1716630488.183423) can0 120#000000070004FF01
(1716630488.184751) can0 107#0000FE0B411991C4
(1716630488.185347) can0 3DB#5080110507140198
(1716630488.185348) can0 0C3#0000000000FD2F00
(1716630488.185348) can0 12B#1147802A00000000
(1716630488.186352) can0 0B2#0000000000000000
(1716630488.187322) can0 0A8#D1CB7E4D97644C0D
(1716630488.190294) can0 3BE#1107F701A9400C80
(1716630488.193298) can0 176#DF05070000010046
(1716630488.193300) can0 0A7#D1AC61860066C83E
(1716630488.193300) can0 65F#00300000E0FF33FF
(1716630488.193349) can0 086#1B86FE1F00000000
(1716630488.194241) can0 040#E384004DC3001428
(1716630488.194287) can0 122#5D8700FE07000078
(1716630488.194333) can0 670#163001000001803C
(1716630488.194720) can0 0C3#0000000000FD2F00
(1716630488.195781) can0 0B2#0000000000000000
(1716630488.195781) can0 0FD#49D01F0000000400
(1716630488.196681) can0 104#0000000018000431
(1716630488.196683) can0 101#8E027D00020F0000
(1716630488.196683) can0 105#0904100030020400
(1716630488.197608) can0 106#1907690000000002
(1716630488.197609) can0 116#6D010D10000000FF
(1716630488.199333) can0 0A8#A7CC9E4D9764580D
(1716630488.199334) can0 0A7#8CAD61860166C83E
(1716630488.200071) can0 086#3D88FE1F00000000
(1716630488.203065) can0 121#440F000027507EFE
(1716630488.204051) can0 120#000000070004FF01
(1716630488.205021) can0 107#0000FE0B411999C4
(1716630488.205022) can0 365#A00216C090026C3C
(1716630488.205023) can0 0C3#0000000000FD2F00
(1716630488.205962) can0 0B2#0000000000000000
(1716630488.206961) can0 0A8#D7CD9E4D9764620D
(1716630488.208551) can0 176#7106070000010046
(1716630488.209481) can0 0A7#07AE61860166C83E
(1716630488.209482) can0 32C#001F00006C240010
(1716630488.210392) can0 086#F58AFE1F00000000
(1716630488.210393) can0 31E#00E03F0000000000
(1716630488.211308) can0 122#A88800FE07000078
(1716630488.212404) can0 556#0000FEFE8300FEAF
(1716630488.213402) can0 0C3#0000000000FD2F00
(1716630488.214407) can0 20F#CE06000000FDFD6C
(1716630488.215466) can0 30B#0010000008000000
(1716630488.215466) can0 12B#C448802A00000000
(1716630488.216738) can0 0B2#0000000000000000
(1716630488.216739) can0 0FD#43D11F0000000400
(1716630488.217832) can0 104#0000000018000431
(1716630488.217833) can0 101#9C037D0002160000
(1716630488.217834) can0 105#8B05100030020400
(1716630488.218375) can0 106#AF08680000000002
(1716630488.218376) can0 116#C1020D10000000FF
(1716630488.218376) can0 392#0000FEFEFE000048
(1716630488.219991) can0 0A8#5DCE9E4D9764660D
(1716630488.219992) can0 0A7#D9AF61860166C83E
(1716630488.219993) can0 086#828CFE1F00000000
(1716630488.223834) can0 121#E100000027507EFE
(1716630488.224315) can0 120#000000070004FF01
(1716630488.225202) can0 107#0000FE0B4119A0C4
(1716630488.225203) can0 0C3#0000000000FD2F00
(1716630488.226194) can0 0B2#0000000000000000
(1716630488.227930) can0 0A8#A2CF9E4D97646E0D
(1716630488.229172) can0 176#F707070000010046
(1716630488.229220) can0 0A7#10A061860166C83E
(1716630488.229221) can0 086#4A8EFE1F00000000
(1716630488.230172) can0 040#8785004DC3001428
(1716630488.233071) can0 122#CC8900FE07000078
(1716630488.234047) can0 11B#00A0800100000000
(1716630488.235035) can0 391#698D235900258027
(1716630488.235036) can0 0C3#0000000000FD2F00
(1716630488.236016) can0 104#0000000018000431
(1716630488.236017) can0 101#49047E00021D0000
(1716630488.236018) can0 0B2#0000000000000000
(1716630488.236987) can0 0FD#8CD21F0000000400
(1716630488.236988) can0 105#4F06100030020400
(1716630488.236989) can0 106#CB09680000000002
(1716630488.237968) can0 116#A5030D10000000FF
(1716630488.237969) can0 0A8#DDC0BE4D9764740D
(1716630488.239007) can0 0A7#35A161860066C83E
(1716630488.240493) can0 086#6C80FE1F00000000
(1716630488.241423) can0 3C0#FA090300
(1716630488.242437) can0 3D4#A002820600060000
(1716630488.243403) can0 121#B001000027507EFE
(1716630488.244359) can0 120#000000070004FF01
(1716630488.244360) can0 107#0000FE0B4119A8C4
(1716630488.244360) can0 0C3#0000000000FD2F00
(1716630488.245387) can0 12B#CC49802A00000000
(1716630488.245388) can0 0B2#0000000000000000
(1716630488.246311) can0 12DD5501#0000000000000000
(1716630488.247304) can0 0A8#CBC1BE4D97647E0D
(1716630488.248303) can0 641#46174ACF140F6E52
(1716630488.249250) can0 176#C708070000010046
(1716630488.249251) can0 0A7#D2A221860062C83E
(1716630488.249251) can0 086#A482FE1F00000000
(1716630488.250837) can0 5F0#64E4640000640000
(1716630488.252736) can0 65A#0000001800003C44
(1716630488.253721) can0 6B4#02336E746974797D
(1716630488.254670) can0 122#9D8A00FE07000078
(1716630488.254671) can0 365#A10216C090026C3C
(1716630488.254672) can0 0C3#0000000000FD2F00
(1716630488.255696) can0 104#0000000018000431
(1716630488.255697) can0 101#BD057E00021C0000
(1716630488.256693) can0 0B2#0000000000000000
(1716630488.256694) can0 0FD#F9D31F0000000400
(1716630488.256695) can0 105#6C07100030020400
(1716630488.257645) can0 106#930A690000000002
(1716630488.257647) can0 116#B6040D10000000FF
(1716630488.258595) can0 0A8#8AC2DE4D97648C0D
(1716630488.258596) can0 3C7#FD00000002400300
(1716630488.259634) can0 0A7#53A321860062C83E
(1716630488.259635) can0 31E#00E03F0000000000
(1716630488.259635) can0 086#D384FE1F00000000
(1716630488.261121) can0 32C#001F00006C240010
(1716630488.262101) can0 121#8F02000027507EFE
(1716630488.263123) can0 120#000000070004FF01
(1716630488.264045) can0 107#0000FE0B4119AFC4
(1716630488.265001) can0 0C3#0000000000FD2F00
(1716630488.265002) can0 20F#0F07000000FDFD6C
(1716630488.265003) can0 30B#0011000008000000
(1716630488.266029) can0 0B2#0000000000000000
(1716630488.266984) can0 0A8#CDC3DE4D9764900D
(1716630488.267935) can0 176#5B09070000010046
(1716630488.268967) can0 0A7#C4A421860162C83E
(1716630488.269983) can0 086#1B86FE1F00000000
(1716630488.271474) can0 040#C286004DC3001429
(1716630488.273423) can0 122#A08B00FE07000078
(1716630488.274367) can0 0C3#0000000000FD2F00
(1716630488.275325) can0 12B#DC4A802A00000000
(1716630488.275326) can0 101#7E067D0002140000
(1716630488.276347) can0 104#0000000018000431
(1716630488.276348) can0 0B2#0000000000000000
(1716630488.276348) can0 0FD#6FD41F0000000400
(1716630488.277300) can0 105#9B08100030020400
(1716630488.277300) can0 106#F70B690000000002
(1716630488.277301) can0 116#D2050D10000000FF
(1716630488.278292) can0 0A8#59C4DE4D9764940D
(1716630488.279307) can0 0A7#BFA521860162C83E
(1716630488.279308) can0 3DD#1810100000470000
(1716630488.280291) can0 086#3D88FE1F00000000
(1716630488.281386) can0 121#8003000027507EFE
(1716630488.282764) can0 120#000000070004FF01
(1716630488.283722) can0 107#0000FE0B4119B7C4
(1716630488.284723) can0 3DB#5080110507140198
(1716630488.284724) can0 0C3#0000000000FD2F00
(1716630488.285695) can0 0B2#0000000000000000
(1716630488.286671) can0 0A8#67C5DE4D97649A0D
(1716630488.287846) can0 3BE#EB08F701A9400C80
(1716630488.289258) can0 176#640A070000010046
(1716630488.290260) can0 0A7#81A621860062C83E
(1716630488.290261) can0 086#F58AFE1F00000000
(1716630488.292238) can0 122#6A8C00FE07000078
(1716630488.293222) can0 0C3#0000000000FD2F00
(1716630488.294243) can0 104#0000000018000431
(1716630488.295418) can0 101#3B077D00020F0000
(1716630488.302681) can0 0B2#0000000000000000
(1716630488.302682) can0 0FD#F5D51F0000000400
(1716630488.303685) can0 105#3909100030020400
(1716630488.303686) can0 106#100C680000000002
(1716630488.303687) can0 116#7E060D10000000FF
(1716630488.303731) can0 0A8#0CC6DE4D9764A40D
(1716630488.303732) can0 0A7#4AA72186FF61C83E
(1716630488.303774) can0 086#828CFE1F00000000
(1716630488.303817) can0 121#C704000027507EFE
(1716630488.303859) can0 120#000000070004FF01
(1716630488.303860) can0 107#0000FE0B4119BEC4
(1716630488.304525) can0 365#A10216C091026C3C
(1716630488.304525) can0 0C3#0000000000FD2F00
(1716630488.305744) can0 12B#794B802A00000000
(1716630488.306556) can0 0B2#0000000000000000
(1716630488.307556) can0 0A8#A9C7FE8D9764AE0D
(1716630488.308537) can0 176#800B070000010046
(1716630488.309465) can0 0A7#45A821860062C83E
(1716630488.309466) can0 32C#001F00006C240010
(1716630488.309467) can0 086#4A8EFE1F00000000
(1716630488.310448) can0 31E#00E03F0000000000
(1716630488.311426) can0 040#A687004DC3001429
(1716630488.312979) can0 1B000010#0050040900322000
(1716630488.313918) can0 122#6D8D00FE07000078
(1716630488.314946) can0 0C3#0000000000FD2F00
(1716630488.314947) can0 20F#6308000000FDFD6C
(1716630488.314948) can0 30B#0012000008000000
(1716630488.315915) can0 104#0000000018000431
(1716630488.315916) can0 101#78087D0002160000
(1716630488.315916) can0 0B2#0000000000000000
(1716630488.316858) can0 0FD#E7D61F0000000400
(1716630488.316859) can0 105#B00A100030020400
(1716630488.316859) can0 106#740D680000000002
(1716630488.317832) can0 116#1A070D10000000FF
(1716630488.317833) can0 392#0000FEFEFE000048
(1716630488.318998) can0 0A8#1BC8FE8D9764B60D
(1716630488.318999) can0 0A7#95A921860062C83E
(1716630488.320121) can0 086#6C80FE1F00000000
(1716630488.323399) can0 121#D305000027507EFE
(1716630488.324305) can0 120#000000070004FF01
(1716630488.325286) can0 107#0000FE0B4119C5C4
(1716630488.325286) can0 0C3#0000000000FD2F00
(1716630488.326262) can0 0B2#0000000000000000
(1716630488.327223) can0 0A8#55C91E8E9764BE0D
(1716630488.328209) can0 176#9B0C070000010046
(1716630488.329178) can0 0A7#3EAA21860162C83E
(1716630488.330172) can0 086#A482FE1F00000000
(1716630488.332142) can0 122#368E00FE07000078
(1716630488.333689) can0 11B#00A0800100000000
(1716630488.335679) can0 391#648D235800258027
(1716630488.336578) can0 0C3#0000000000FD2F00
(1716630488.336579) can0 12B#3C4C802A00000000
(1716630488.336579) can0 101#C9097D00021F0000
(1716630488.337631) can0 104#0000000018000431
(1716630488.337632) can0 0B2#0000000000000000
(1716630488.337632) can0 0FD#DDD71F0000000400
(1716630488.338566) can0 105#220B100030020400
(1716630488.338567) can0 106#2C0E690000000002
(1716630488.338568) can0 116#58080D10000000FF
(1716630488.339568) can0 0A8#0ACA1E8E9764BE0D
(1716630488.339569) can0 0A7#FDAB21860062C83E
(1716630488.339569) can0 086#D384FE1F00000000
(1716630488.340524) can0 3C0#0A0A0300
(1716630488.341546) can0 121#1706000027507EFE
(1716630488.343076) can0 120#000000070004FF01
(1716630488.344061) can0 107#0000FE0B4119CDC4
(1716630488.345205) can0 0C3#0000000000FD2F00
(1716630488.346355) can0 0B2#0000000000000000
(1716630488.347606) can0 0A8#CECB3E8E9764C40D
(1716630488.348932) can0 176#B30D070000010046
(1716630488.349964) can0 0A7#8B9C21860062C83E
(1716630488.349965) can0 086#1B86FE1F00000000
(1716630488.351080) can0 040#F088004DC300142A
(1716630488.352251) can0 122#C38F00FE07000078
(1716630488.353448) can0 365#A10216C090026C3C
(1716630488.354497) can0 0C3#0000000000FD2F00
(1716630488.355320) can0 104#0000000018000431
(1716630488.356309) can0 101#EE0A7D00021B0000
(1716630488.356310) can0 0B2#0000000000000000
(1716630488.356311) can0 0FD#1AD81F0000000400
(1716630488.357279) can0 105#0E0C100030020400
(1716630488.357280) can0 106#480F690000000002
(1716630488.357280) can0 116#3C090D10000000FF
(1716630488.358254) can0 0A8#A0CC3E8E9764CC0D
(1716630488.359266) can0 3C7#9200000002400300
(1716630488.359266) can0 0A7#F0AD2186FF61C83E
(1716630488.359267) can0 31E#00E03F0000000000
(1716630488.360195) can0 086#3D88FE1F00000000
(1716630488.360195) can0 32C#001F00006C240010
(1716630488.362173) can0 121#C407004027507EFE
(1716630488.363167) can0 120#000000070004FF01
(1716630488.364704) can0 107#0000FE0B4119D4C4
(1716630488.366689) can0 0C3#0000000000FD2F00
(1716630488.366690) can0 20F#0D09000000FDFD6C
(1716630488.366690) can0 30B#0013000008000000
(1716630488.367626) can0 12B#684D802A00000000
(1716630488.367626) can0 0B2#0000000000000000
(1716630488.368613) can0 0A8#77CD3E8E9764DA0D
(1716630488.368613) can0 176#160E070000010046
(1716630488.369567) can0 0A7#7BAE2186FF61C83E
(1716630488.369568) can0 153#0000FFFFE0FEDF00
(1716630488.369568) can0 086#F58AFE1F00000000
(1716630488.371488) can0 122#F58000FE07000078
(1716630488.375321) can0 0C3#0000000000FD2F00
(1716630488.376464) can0 104#0000000018000431
(1716630488.377124) can0 101#F80B7D0002130000
(1716630488.377125) can0 0B2#0000000000000000
(1716630488.377125) can0 0FD#28D91F0000000400
(1716630488.377965) can0 105#7E0D100030020400
(1716630488.377966) can0 106#0A00690000000002
(1716630488.377966) can0 116#900A0D10000000FF
(1716630488.378959) can0 0A8#BACE3E8E9764E20D
(1716630488.378959) can0 0A7#E7AF21860062C83E
(1716630488.379983) can0 3DD#1810100000470000
(1716630488.379984) can0 086#828CFE1F00000000
(1716630488.382883) can0 121#8508004027507EFE
(1716630488.383847) can0 120#000000070004FF01
(1716630488.385369) can0 107#0000FE0B4119DCC4
(1716630488.385370) can0 3DB#5080110507140198
(1716630488.385371) can0 0C3#0000000000FD2F00
(1716630488.386392) can0 0B2#0000000000000000
(1716630488.387348) can0 0A8#59CF3E8E9764E80D
(1716630488.388352) can0 3BE#C809F701A9400C80
(1716630488.389341) can0 176#9F0F070000010046
(1716630488.389342) can0 0A7#83A021860162C83E
(1716630488.389342) can0 086#4A8EFE1F00000000
(1716630488.390262) can0 040#9489004DC300142A
(1716630488.393352) can0 122#508100FE07000078
(1716630488.394355) can0 0C3#0000000000FD2F00
(1716630488.395754) can0 12B#274E802A00000000
(1716630488.396710) can0 0B2#0000000000000000
(1716630488.396711) can0 0FD#64DA1F0000000400
(1716630488.397901) can0 104#0000000018000431
(1716630488.397902) can0 101#430C7D0002140000
(1716630488.397903) can0 105#FB0E100030020400
(1716630488.398657) can0 106#6E01690000000002
(1716630488.398658) can0 116#F40B0D10000000FF
(1716630488.398658) can0 0A8#09C03E8E9764EC0D
(1716630488.399626) can0 0A7#6F9121860062C83E
(1716630488.399627) can0 086#6C80FE1F00000000
(1716630488.401556) can0 121#CB09004027507EFE
(1716630488.402670) can0 120#000000070004FF01
(1716630488.403547) can0 107#0000FE0B4119E4C4
(1716630488.404533) can0 365#A10216C090026C3C
(1716630488.404534) can0 0C3#0000000000FD2F00
(1716630488.406380) can0 0B2#0000000000000000
(1716630488.407650) can0 0A8#59C15E8E9764F00D
(1716630488.407976) can0 176#8C00070000010046
(1716630488.409031) can0 0A7#1B9221860062C83E
(1716630488.409974) can0 32C#001F00006C240010
(1716630488.409975) can0 086#A482FE1F00000000
(1716630488.409975) can0 31E#00E03F0000000000
(1716630488.413008) can0 122#968200FE07000078
(1716630488.413858) can0 0C3#0000000000FD2F00
(1716630488.414826) can0 20F#590A000000FDFD6C
(1716630488.414827) can0 30B#0014000008000000
(1716630488.416399) can0 0B2#0000000000000000
(1716630488.417351) can0 0FD#4BDB1F0000000400
(1716630488.417352) can0 104#0000000018000431
(1716630488.418325) can0 101#370D7D00021B0000
(1716630488.418326) can0 105#C30F100030020400
(1716630488.418326) can0 106#C202690000000002
(1716630488.419376) can0 116#E70C0D10000000FF
(1716630488.419377) can0 392#0000FEFEFE000048
(1716630488.419378) can0 0A8#91C25E8E9764F60D
(1716630488.420302) can0 0A7#0F93E185FF61C83E
(1716630488.420303) can0 086#D384FE1F00000000
(1716630488.422355) can0 121#C50A004027507EFE
(1716630488.423390) can0 120#000000070004FF01
(1716630488.424270) can0 107#0000FE0B4119EBC4
(1716630488.424271) can0 0C3#0000000000FD2F00
(1716630488.425245) can0 12B#0D4F802A00000000
(1716630488.426768) can0 0B2#0000000000000000
(1716630488.427808) can0 0A8#7DC35E8E9764000E
(1716630488.428809) can0 176#4B01070000010046
(1716630488.429741) can0 0A7#E2942186FF61C83E
(1716630488.429742) can0 086#1B86FE1F00000000
(1716630488.430687) can0 040#D18A004DC300142B
(1716630488.431702) can0 122#F18300FE07000078
(1716630488.432745) can0 11B#00A0800100000000
(1716630488.433753) can0 391#618D235700258027
(1716630488.434608) can0 0C3#0000000000FD2F00
(1716630488.435578) can0 104#0000000018000431
(1716630488.437142) can0 101#A90E7D00021D0000
(1716630488.437143) can0 0B2#0000000000000000
(1716630488.437144) can0 0FD#D2DC1F0000000400
(1716630488.438143) can0 105#DC00100030020400
(1716630488.438144) can0 106#A603690000000002
(1716630488.438144) can0 116#830D0D10000000FF
(1716630488.439136) can0 0A8#1EC47E8E97640E0E
(1716630488.439137) can0 0A7#F0952186005EC83E
(1716630488.440313) can0 086#3D88FE1F00000000
(1716630488.441464) can0 3C0#BF0B0300
(1716630488.442625) can0 121#870B004027507EFE
(1716630488.443730) can0 120#000000070004FF01
(1716630488.444866) can0 107#0000FE0BC118F3C4
(1716630488.444868) can0 6B2#1E971082A9BCE023
(1716630488.444868) can0 0C3#0000000000FD2F00
(1716630488.446052) can0 0B2#0000000000000000
(1716630488.447160) can0 5F0#64E4640000640000
(1716630488.447161) can0 6B4#0000000000435132
(1716630488.448271) can0 0A8#D9C57ECE9764160E
(1716630488.449239) can0 176#2202070000010046
(1716630488.449240) can0 0A7#1996E185015EC83E
(1716630488.450209) can0 086#F58AFE1F00000000
(1716630488.452332) can0 122#478400FE07000078
(1716630488.453317) can0 365#A10216C090026C3C
(1716630488.454308) can0 0C3#0000000000FD2F00
(1716630488.455273) can0 12B#8640802A00000000
(1716630488.456411) can0 104#0000000018000431
(1716630488.456412) can0 101#840F7D00021A0000
(1716630488.456412) can0 0B2#0000000000000000
(1716630488.457767) can0 0FD#5BDD1F0000000400
(1716630488.457767) can0 105#1301100030020400
(1716630488.457768) can0 106#4104680000000002
(1716630488.459816) can0 116#2F0E0D10000000FF
(1716630488.459817) can0 0A8#85C67ECE97641C0E
(1716630488.460723) can0 3C7#FD00000002400300
(1716630488.460724) can0 0A7#9097E185015EC83E
(1716630488.460724) can0 31E#00E03F0000000000
(1716630488.461668) can0 086#828CFE1F00000000
(1716630488.461669) can0 32C#001F00006C240010
(1716630488.462679) can0 121#D20C004027507EFE
(1716630488.463665) can0 120#000000070004FF01
(1716630488.464618) can0 107#0000FE0BC118FAC4
(1716630488.464619) can0 0C3#0000000000FD2F00
(1716630488.464619) can0 20F#FB0B000000FDFD6C
(1716630488.465590) can0 30B#0015000008000000
(1716630488.466551) can0 0B2#0000000000000000
(1716630488.468411) can0 0A8#8CC77ECE97641E0E
(1716630488.469112) can0 176#CF03070000010046
(1716630488.470110) can0 0A7#7098E185005EC83E
(1716630488.470111) can0 086#4A8EFE1F00000000
(1716630488.471070) can0 040#B58B004DC300142B
(1716630488.472071) can0 122#778500FE07000078
(1716630488.473004) can0 0C3#0000000000FD2F00
(1716630488.473958) can0 104#0000000018000431
(1716630488.474940) can0 101#BF007D0002130000
(1716630488.475931) can0 0B2#0000000000000000
(1716630488.476906) can0 0FD#A4DE1F0000000400
(1716630488.476907) can0 105#5702100030020400
(1716630488.476907) can0 106#D105690000000002
(1716630488.478428) can0 116#4B0F0D10000000FF
(1716630488.480430) can0 0A8#59C89ECE9764220E
(1716630488.480431) can0 0A7#A099E185005EC83E
(1716630488.481362) can0 3DD#1810100000470000
(1716630488.481362) can0 086#6C80FE1F00000000
(1716630488.482312) can0 121#F00D004027507EFE
(1716630488.483325) can0 120#000000070004FF01
(1716630488.484283) can0 107#0000FE0DC11802C5
(1716630488.484284) can0 3DB#5080110507140198
(1716630488.485260) can0 0C3#0000000000FD2F00
(1716630488.485261) can0 12B#F441802A00000000
(1716630488.486288) can0 0B2#0000000000000000
(1716630488.487232) can0 585#563C000022322000
(1716630488.488795) can0 0A8#5BC99ECE97642A0E
(1716630488.490760) can0 3BE#030AF701A9400C80
(1716630488.490761) can0 176#6704070000010046
(1716630488.490761) can0 0A7#E49AE185FF5DC83E
(1716630488.491705) can0 086#A482FE1F00000000
(1716630488.492675) can0 122#518600FE07000078
(1716630488.493658) can0 0C3#0000000000FD2F00
(1716630488.494619) can0 104#0000000018000431
(1716630488.495601) can0 101#16017D00020F0000
(1716630488.496570) can0 0B2#0000000000000000
(1716630488.496571) can0 0FD#33DF1F0000000400
(1716630488.496572) can0 105#0403100030020400
(1716630488.497529) can0 106#7D06690000000002
(1716630488.497530) can0 116#09000D10000000FF
(1716630488.499119) can0 0A8#ACCA9ECE9764360E
(1716630488.501029) can0 0A7#8A9BE185FF5DC83E
(1716630488.501030) can0 086#D384FE1F00000000
(1716630488.501987) can0 121#3E0E004027507EFE
(1716630488.503035) can0 120#000000070004FF01
(1716630488.503994) can0 107#0000FE0EC1180AC5
(1716630488.504933) can0 365#A10216C090026C3C
(1716630488.504934) can0 0C3#0000000000FD2F00
(1716630488.505885) can0 0B2#0000000000000000
(1716630488.506868) can0 0A8#18CBBECE9764440E
(1716630488.507870) can0 176#DF05070000010046
(1716630488.509414) can0 0A7#779CE185005EC83E
(1716630488.511370) can0 086#1B86FE1F00000000
(1716630488.511371) can0 31E#00E03F0000000000
(1716630488.511371) can0 32C#001F00006C240010
(1716630488.512342) can0 040#678C004DC300142C
(1716630488.513454) can0 1B000010#0050040900322000
(1716630488.513455) can0 122#C78700FE07000078
(1716630488.515240) can0 0C3#0000000000FD2F00
(1716630488.516262) can0 20F#D80C000000FDFD6C
(1716630488.516263) can0 30B#0016000008000000
(1716630488.516264) can0 12B#5042802A00000000
(1716630488.517229) can0 104#0000000018000431
(1716630488.517229) can0 101#73027D00021A0000
(1716630488.517230) can0 0B2#0000000000000000
(1716630488.518149) can0 0FD#49D01F0000000400
(1716630488.518150) can0 105#0904100030020400
(1716630488.518150) can0 106#1907690000000002
(1716630488.519756) can0 116#6D010D10000000FF
(1716630488.519757) can0 392#0000FEFEFE000048
(1716630488.519757) can0 0A8#52CCBECE97644A0E
(1716630488.520709) can0 0A7#2A9DE185015EC83E
(1716630488.520710) can0 086#3D88FE1F00000000
(1716630488.521565) can0 121#C20F004027507EFE
(1716630488.522642) can0 120#000000070004FF01
(1716630488.523667) can0 107#0000FE10C11811C5
(1716630488.524619) can0 0C3#0000000000FD2F00
(1716630488.525557) can0 0B2#0000000000000000
(1716630488.526347) can0 0A8#79CDBECE97644E0E
(1716630488.527576) can0 176#7106070000010046
(1716630488.528524) can0 0A7#A19EE185015EC83E
(1716630488.530268) can0 086#F58AFE1F00000000
(1716630488.532017) can0 122#328800FE07000078
(1716630488.532964) can0 11B#00A0800100000000
(1716630488.533948) can0 391#5D8D235700258027
(1716630488.534919) can0 0C3#0000000000FD2F00
(1716630488.535911) can0 104#0000000018000431
(1716630488.535912) can0 101#DF037D0002200000
(1716630488.536889) can0 0B2#0000000000000000
(1716630488.536890) can0 0FD#43D11F0000000400
(1716630488.536890) can0 105#8B05100030020400
(1716630488.537845) can0 106#5B08690000000002
(1716630488.537846) can0 116#C1020D10000000FF
(1716630488.538851) can0 0A8#E1CEDECE9764520E
(1716630488.538851) can0 0A7#D29FE185005EC83E
(1716630488.540405) can0 086#828CFE1F00000000
(1716630488.542356) can0 3C0#C50C0300
(1716630488.543280) can0 121#6700004027507EFE
(1716630488.544323) can0 120#000000070004FF01
(1716630488.544324) can0 107#0000FE13C11819C5
(1716630488.545298) can0 17F00010#2000000000000580
(1716630488.545299) can0 0C3#0000000000FD2F00
(1716630488.546428) can0 12B#0843802A00000000
(1716630488.546430) can0 0B2#0000000000000000
(1716630488.547277) can0 0A8#90CFDE0E98645A0E
(1716630488.549184) can0 176#F707070000010046
(1716630488.550763) can0 0A7#5990E185FF5DC83E
(1716630488.550828) can0 086#4A8EFE1F00000000
(1716630488.552016) can0 040#038D004DC300142C
(1716630488.552995) can0 122#CC8900FE07000078
(1716630488.553657) can0 365#A10217C08F026C3C
(1716630488.554629) can0 0C3#0000000000FD2F00
(1716630488.555605) can0 104#0000000018000431
(1716630488.557007) can0 101#B4047E00021B0000
(1716630488.557008) can0 0B2#0000000000000000
(1716630488.557008) can0 0FD#8CD21F0000000400
(1716630488.557489) can0 105#4F06100030020400
(1716630488.557490) can0 106#3F09690000000002
(1716630488.557490) can0 116#A5030D10000000FF
(1716630488.558479) can0 0A8#87C0DE0E9864620E
(1716630488.559470) can0 3C7#9200000002400300
(1716630488.559471) can0 0A7#D191E185FF5DC83E
(1716630488.559471) can0 31E#00E03F0000000000
(1716630488.561042) can0 086#6C80FE1F00000000
(1716630488.561043) can0 32C#001F00006C240010
(1716630488.563066) can0 121#3601004027507EFE
(1716630488.563969) can0 120#000000070004FF01
(1716630488.565023) can0 107#0000FE15C11821C5
(1716630488.565024) can0 0C3#0000000000FD2F00
(1716630488.565024) can0 20F#EA0D000000FDFD6C
(1716630488.565885) can0 30B#0017000008000000
(1716630488.565886) can0 0B2#0000000000000000
(1716630488.566886) can0 0A8#8DC1DE0E98646A0E
(1716630488.567869) can0 176#C708070000010046
(1716630488.568828) can0 0A7#E792E185005EC83E
(1716630488.569844) can0 153#0000FFFFE0FEDF00
(1716630488.569845) can0 086#A482FE1F00000000
(1716630488.572315) can0 122#9D8A00FE07000078
(1716630488.573247) can0 0C3#0000000000FD2F00
(1716630488.574235) can0 12B#8844802A00000000
(1716630488.575363) can0 104#0000000018000431
(1716630488.576205) can0 101#6D057E0002140000
(1716630488.576206) can0 0B2#0000000000000000
(1716630488.577202) can0 0FD#F9D31F0000000400
(1716630488.577203) can0 105#6C07100030020400
(1716630488.577204) can0 106#930A690000000002
(1716630488.578206) can0 116#B6040D10000000FF
(1716630488.578207) can0 0A8#76C2FE0E9864700E
(1716630488.579205) can0 0A7#6693E185005EC83E
(1716630488.580150) can0 3DD#1810100000470000
(1716630488.580151) can0 086#D384FE1F00000000
(1716630488.581608) can0 121#0902004027507EFE
(1716630488.583662) can0 120#000000070004FF01
(1716630488.584558) can0 107#0000FE17C11829C5
(1716630488.585561) can0 3DB#5080110507140198
(1716630488.585562) can0 0C3#0000000000FD2F00
(1716630488.586565) can0 0B2#0000000000000000
(1716630488.587485) can0 0A8#E9C3FE0E9864780E
(1716630488.588476) can0 3BE#750BF701A9400C80
(1716630488.589507) can0 176#5B09070000010046
(1716630488.589508) can0 0A7#5C94E185005EC83E
(1716630488.589509) can0 086#1B86FE1F00000000
(1716630488.590413) can0 040#468E004DC300142D
(1716630488.591402) can0 122#A08B00FE07000078
(1716630488.592657) can0 0C3#0000000000FD2F00
(1716630488.595917) can0 0B2#0000000000000000
(1716630488.596873) can0 0FD#6FD41F0000000400
(1716630488.597865) can0 104#0000000018000431
(1716630488.597866) can0 101#38067E0002120000
(1716630488.598829) can0 105#9B08100030020400
(1716630488.598831) can0 106#030B680000000002
(1716630488.598831) can0 116#D2050D10000000FF
(1716630488.599821) can0 65D#36352B200001647A
(1716630488.599822) can0 0A8#06C4FE0E9864800E
(1716630488.599823) can0 0A7#2795E185005EC83E
(1716630488.600725) can0 086#3D88FE1F00000000
(1716630488.601741) can0 121#0603004027507EFE
(1716630488.603310) can0 120#000000070004FF01
(1716630488.604254) can0 107#0000FE1AC11830C5
(1716630488.605310) can0 365#A10217C08F026C3C
(1716630488.605310) can0 0C3#0000000000FD2F00
(1716630488.606248) can0 12B#2D45802A00000000
(1716630488.606249) can0 0B2#0000000000000000
(1716630488.607290) can0 0A8#24C5FE0E98648C0E
(1716630488.608177) can0 176#640A070000010046
(1716630488.609165) can0 0A7#B496E185005EC83E
(1716630488.609166) can0 32C#001F00006C240010
(1716630488.610111) can0 31E#00E03F0000000000
(1716630488.610112) can0 086#F58AFE1F00000000
(1716630488.611095) can0 5EA#00000036F8FEFB0F
(1716630488.612662) can0 122#6A8C00FE07000078
(1716630488.613597) can0 0C3#0000000000FD2F00
(1716630488.614552) can0 20F#BD0E000000FDFD6C
(1716630488.615538) can0 30B#0018000008000000
(1716630488.616516) can0 0B2#0000000000000000
(1716630488.616517) can0 0FD#F5D51F0000000400
(1716630488.617487) can0 104#0000000018000431
(1716630488.617488) can0 101#9A077E00021D0000
(1716630488.617488) can0 105#3909100030020400
(1716630488.618471) can0 106#E40C690000000002
(1716630488.618472) can0 116#7E060D10000000FF
(1716630488.618472) can0 392#0000FEFEFE000048
(1716630488.619457) can0 0A8#44C61E0F9864920E
(1716630488.619458) can0 0A7#8997A185015EC83E
(1716630488.619459) can0 086#828CFE1F00000000
(1716630488.621967) can0 121#4104004027507EFE
(1716630488.622974) can0 120#000000070004FF01
(1716630488.623964) can0 107#0000FE1DC11838C5
(1716630488.624923) can0 0C3#0000000000FD2F00
(1716630488.625897) can0 0B2#0000000000000000
(1716630488.626960) can0 0A8#21C71E0F98649A0E
(1716630488.627958) can0 176#800B070000010046
(1716630488.628843) can0 0A7#C498A185015EC83E
(1716630488.629899) can0 086#4A8EFE1F00000000
(1716630488.630824) can0 040#228F004DC300142D
(1716630488.631785) can0 122#6D8D00FE07000078
(1716630488.633356) can0 11B#00A0800100000000
(1716630488.634901) can0 391#5A8D235700258027
(1716630488.635944) can0 0C3#0000000000FD2F00
(1716630488.636804) can0 12B#3446802A00000000
(1716630488.636805) can0 104#0000000018000431
(1716630488.636805) can0 101#A8087E00021F0000
(1716630488.637799) can0 0B2#0000000000000000
(1716630488.637800) can0 0FD#E7D61F0000000400
(1716630488.637801) can0 105#B00A100030020400
(1716630488.638946) can0 106#800D690000000002
(1716630488.638947) can0 116#1A070D10000000FF
(1716630488.638948) can0 0A8#60C81E0F9864A00E
(1716630488.639791) can0 0A7#A099E185005EC83E
(1716630488.639792) can0 086#6C80FE1F00000000
(1716630488.640760) can0 3C0#700D0300
(1716630488.641637) can0 121#5505004027507EFE
(1716630488.642855) can0 120#000000070004FF01
(1716630488.644403) can0 107#0000FE1FC11840C5
(1716630488.645388) can0 0C3#0000000000FD2F00
(1716630488.646337) can0 5F0#64E4640000640000
(1716630488.646338) can0 6B4#01357B6334726964
(1716630488.646339) can0 0B2#0000000000000000
(1716630488.647318) can0 0A8#C1C93E0F9864AC0E
(1716630488.648260) can0 176#9B0C070000010046
(1716630488.649252) can0 0A7#A69AE185005EC83E
(1716630488.650262) can0 086#A482FE1F00000000
(1716630488.653760) can0 122#368E00FE07000078
(1716630488.654694) can0 365#A10217C08F02683C
(1716630488.655657) can0 0C3#0000000000FD2F00
(1716630488.655658) can0 104#0000000018000431
(1716630488.656737) can0 101#E7097D00021C0000
(1716630488.656738) can0 0B2#0000000000000000
(1716630488.656738) can0 0FD#DDD71F0000000400
(1716630488.657603) can0 105#220B100030020400
(1716630488.657604) can0 106#2C0E690000000002
(1716630488.657604) can0 116#58080D10000000FF
(1716630488.658594) can0 0A8#12CA3E0F9864B60E
(1716630488.659659) can0 3C7#FD00000002400300
(1716630488.659660) can0 0A7#5B9BA185005AC83E
(1716630488.659661) can0 086#D384FE1F00000000
(1716630488.660695) can0 31E#00E03F0000000000
(1716630488.660695) can0 32C#001F00006C240010
(1716630488.662721) can0 121#9106004027507EFE
(1716630488.664208) can0 120#000000070004FF01
(1716630488.666330) can0 107#0000FE22C11848C5
(1716630488.666331) can0 0C3#0000000000FD2F00
(1716630488.667213) can0 20F#990F000000FDFD6B
(1716630488.667214) can0 30B#0019000008000000
(1716630488.667215) can0 12B#1147802A00000000
(1716630488.668217) can0 0B2#0000000000000000
(1716630488.668218) can0 0A8#97CB3E0F9864BA0E
(1716630488.669185) can0 176#B30D070000010046
(1716630488.669186) can0 0A7#499CA185015AC83E
(1716630488.670201) can0 086#1B86FE1F00000000
(1716630488.671071) can0 040#7480004DC300142E
(1716630488.672097) can0 122#C38F00FE07000078
(1716630488.673031) can0 640#00889AC77F600F00
(1716630488.674588) can0 0C3#0000000000FD2F00
(1716630488.675553) can0 104#0000000018000431
(1716630488.676615) can0 101#3E0A7D0002130000
(1716630488.676616) can0 0B2#0000000000000000
(1716630488.676617) can0 0FD#1AD81F0000000400
(1716630488.677525) can0 105#0E0C100030020400
(1716630488.677526) can0 106#480F690000000002
(1716630488.677526) can0 116#3C090D10000000FF
(1716630488.678480) can0 0A8#ADCC3E0F9864BC0E
(1716630488.679507) can0 0A7#149DA185005AC83E
(1716630488.679508) can0 3DD#1810100000470000
(1716630488.680415) can0 086#3D88FE1F00000000
(1716630488.683415) can0 121#C407004027507EFE
(1716630488.684920) can0 120#000000070004FF01
(1716630488.686832) can0 107#0000FE24C11850C5
(1716630488.686833) can0 3DB#5080110507140198
(1716630488.686833) can0 0C3#0000000000FD2F00
(1716630488.687805) can0 0B2#0000000000000000
(1716630488.688825) can0 0A8#A2CD3E0F9864BE0E
(1716630488.688825) can0 3BE#F00CF701A9400C80
(1716630488.688826) can0 176#160E070000010046
(1716630488.689793) can0 0A7#DD9EA185FF59C83E
(1716630488.689794) can0 65F#00300000E0FF33FF
(1716630488.689795) can0 086#F58AFE1F00000000
(1716630488.691636) can0 122#F58000FE07000078
(1716630488.692731) can0 670#163001000001803C
(1716630488.693671) can0 0C3#0000000000FD2F00
(1716630488.695232) can0 12B#C448802A00000000
(1716630488.696180) can0 104#0000000018000431
(1716630488.697115) can0 101#F80B7D0002130000
(1716630488.697116) can0 0B2#0000000000000000
(1716630488.697116) can0 0FD#28D91F0000000400
(1716630488.698141) can0 105#7E0D100030020400
(1716630488.698142) can0 106#0A00690000000002
(1716630488.698143) can0 116#900A0D10000000FF
(1716630488.699097) can0 0A8#D6CE3E0F9864CA0E
(1716630488.699098) can0 0A7#A18FA185FF59C83E
(1716630488.700181) can0 086#828CFE1F00000000
(1716630488.703039) can0 121#8508004027507EFE
(1716630488.703988) can0 120#000000070004FF01
(1716630488.705478) can0 107#0000FE26C11858C5
(1716630488.705478) can0 365#A10217C08F02683C
(1716630488.705479) can0 0C3#0000000000FD2F00
(1716630488.706529) can0 0B2#0000000000000000
(1716630488.707621) can0 0A8#76CF5E4F9864D20E
(1716630488.708509) can0 176#9F0F070000010046
(1716630488.709559) can0 0A7#6880A185FF59C83E
(1716630488.709560) can0 31E#00E03F0000000000
(1716630488.709561) can0 086#4A8EFE1F00000000
(1716630488.710448) can0 32C#001F00006C240010
(1716630488.711425) can0 040#1081004DC300142E
(1716630488.712375) can0 1B000010#0050040900322000
(1716630488.713404) can0 122#508100FE07000078
(1716630488.714398) can0 0C3#0000000000FD2F00
(1716630488.715873) can0 20F#A400000000FDFD6B
(1716630488.716849) can0 30B#001A000008000000
(1716630488.716850) can0 101#D60C7E0002170000
(1716630488.716850) can0 104#0000000018000431
(1716630488.717822) can0 0B2#0000000000000000
(1716630488.717823) can0 0FD#64DA1F0000000400
(1716630488.717823) can0 105#FB0E100030020400
(1716630488.718839) can0 106#6E01690000000002
(1716630488.718840) can0 116#F40B0D10000000FF
(1716630488.718840) can0 392#0000FEFEFE000048
(1716630488.719862) can0 0A8#6EC05E4F9864DA0E
(1716630488.719863) can0 0A7#A281A185005AC83E
(1716630488.719863) can0 086#6C80FE1F00000000
(1716630488.721849) can0 121#CB09004027507EFE
(1716630488.723306) can0 120#000000070004FF01
(1716630488.724241) can0 107#0000FE2941185FC5
(1716630488.725244) can0 0C3#0000000000FD2F00
(1716630488.726265) can0 12B#CC49802A00000000
(1716630488.726266) can0 0B2#0000000000000000
(1716630488.727324) can0 0A8#5CC15E4F9864D60E
(1716630488.728277) can0 176#8C00070000010046
(1716630488.729223) can0 0A7#D682A185005AC83E
(1716630488.730259) can0 086#A482FE1F00000000
(1716630488.733133) can0 122#968200FE07000078
(1716630488.734107) can0 11B#00A0800100000000
(1716630488.735098) can0 391#578D235600258027
(1716630488.735099) can0 0C3#0000000000FD2F00
(1716630488.736646) can0 104#0000000018000431
(1716630488.736647) can0 101#E40D7E00021F0000
(1716630488.736647) can0 0B2#0000000000000000
(1716630488.737593) can0 0FD#4BDB1F0000000400
(1716630488.737594) can0 105#C30F100030020400
(1716630488.737594) can0 106#C202690000000002
(1716630488.738565) can0 116#E70C0D10000000FF
(1716630488.738565) can0 0A8#37C27E4F9864D40E
(1716630488.739635) can0 0A7#1583A185FF59C83E
(1716630488.739635) can0 086#D384FE1F00000000
(1716630488.740497) can0 3C0#800E0300
(1716630488.743516) can0 121#C50A004027507EFE
(1716630488.744454) can0 120#000000070004FF01
(1716630488.745521) can0 107#0000FE2B411867C5
(1716630488.745521) can0 0C3#0000000000FD2F00
(1716630488.747011) can0 0B2#0000000000000000
(1716630488.747970) can0 0A8#8CC37E4F9864DA0E
(1716630488.748919) can0 176#4B01070000010046
(1716630488.749950) can0 0A7#5A84A185FD59C83E
(1716630488.749951) can0 086#1B86FE1F00000000
(1716630488.750870) can0 040#5582004DC300142F
(1716630488.751884) can0 122#F18300FE07000078
(1716630488.752809) can0 365#A10217C08F02683C
(1716630488.754365) can0 0C3#0000000000FD2F00
(1716630488.755676) can0 12B#DC4A802A00000000
(1716630488.757325) can0 104#0000000018000431
(1716630488.758293) can0 101#3C0E7E00021E0000
(1716630488.758294) can0 0B2#0000000000000000
(1716630488.758295) can0 0FD#D2DC1F0000000400
(1716630488.759293) can0 105#DC00100030020400
(1716630488.759294) can0 106#A603690000000002
(1716630488.759295) can0 116#830D0D10000000FF
(1716630488.760322) can0 0A8#67C47E4F9864E60E
(1716630488.760323) can0 3C7#9200000002400300
(1716630488.760323) can0 0A7#F985A185FE59C83E
(1716630488.761190) can0 31E#00E03F0000000000
(1716630488.761190) can0 086#3D88FE1F00000000
(1716630488.761191) can0 32C#001F00006C240010
(1716630488.762210) can0 121#870B004027507EFE
(1716630488.763161) can0 120#000000070004FF01
(1716630488.764141) can0 107#0000FE2D41186FC5
(1716630488.765104) can0 0C3#0000000000FD2F00
(1716630488.765105) can0 20F#FA01000000FDFD6B
(1716630488.765106) can0 30B#001B000008000000
(1716630488.766058) can0 0B2#0000000000000000
(1716630488.767610) can0 0A8#C9C57E4F9864F00E
(1716630488.768639) can0 176#2202070000010046
(1716630488.769657) can0 0A7#C786A185FF59C83E
(1716630488.769658) can0 153#0000FFFFE0FEDF00
(1716630488.769659) can0 086#F58AFE1F00000000
(1716630488.771733) can0 122#478400FE07000078
(1716630488.774506) can0 0C3#0000000000FD2F00
(1716630488.775470) can0 0B2#0000000000000000
(1716630488.776453) can0 0FD#5BDD1F0000000400
(1716630488.777966) can0 104#0000000018000431
(1716630488.777967) can0 101#120F7E0002140000
(1716630488.777968) can0 105#1301100030020400
(1716630488.778957) can0 106#B504690000000002
(1716630488.778958) can0 116#2F0E0D10000000FF
(1716630488.778959) can0 0A8#DDC67E4F9864F60E
(1716630488.779965) can0 0A7#0C87A185005AC83E
(1716630488.779966) can0 3DD#1810100000470000
(1716630488.779967) can0 086#828CFE1F00000000
(1716630488.781808) can0 121#770C008027507EFE
(1716630488.782888) can0 120#000000070004FF01
(1716630488.783838) can0 107#0000FE2F411877C5
(1716630488.784864) can0 3DB#5080110507140198
(1716630488.784865) can0 0C3#0000000000FD2F00
(1716630488.785824) can0 12B#794B802A00000000
(1716630488.786897) can0 0B2#0000000000000000
(1716630488.788368) can0 0A8#A4C77E4F9864FC0E
(1716630488.789356) can0 3BE#4B0DF701A9400C80
(1716630488.789357) can0 176#CF03070000010046
(1716630488.790279) can0 0A7#4188A185005AC83E
(1716630488.790280) can0 086#4A8EFE1F00000000
(1716630488.791209) can0 040#3183004DC300142F
(1716630488.792189) can0 122#778500FE07000078
(1716630488.793175) can0 0C3#0000000000FD2F00
(1716630488.796125) can0 0B2#0000000000000000
(1716630488.798707) can0 0FD#A4DE1F0000000400
(1716630488.800745) can0 104#0000000018000431
(1716630488.800746) can0 101#A5007E0002130000
(1716630488.800746) can0 105#5702100030020400
(1716630488.800801) can0 106#2505680000000002
(1716630488.800802) can0 116#4B0F0D10000000FF
(1716630488.800802) can0 0A8#B8C89E4F9864020F
(1716630488.800854) can0 0A7#9189A185005AC83E
(1716630488.800855) can0 086#6C80FE1F00000000
(1716630488.803578) can0 121#550D008027507EFE
(1716630488.804464) can0 120#000000070004FF01
(1716630488.805612) can0 107#0000FE3141187FC5
(1716630488.805613) can0 365#A10217C08F02683C
(1716630488.805614) can0 0C3#0000000000FD2F00
(1716630488.807177) can0 0B2#0000000000000000
(1716630488.808166) can0 0A8#F2C99E4F9864060F
(1716630488.808928) can0 176#6704070000010046
(1716630488.809984) can0 0A7#978AA185005AC83E
(1716630488.809985) can0 32C#001F00006C240010
(1716630488.809986) can0 086#A482FE1F00000000
(1716630488.810973) can0 31E#00E03F0000000000
(1716630488.811869) can0 122#CB8600FE07000078
(1716630488.812851) can0 0C3#0000000000FD2F00
(1716630488.813875) can0 20F#2F02000000FDFD6B
(1716630488.814824) can0 30B#001C000008000000
(1716630488.816291) can0 12B#3C4C802A00000000
(1716630488.816783) can0 0B2#0000000000000000
(1716630488.816784) can0 0FD#33DF1F0000000400
(1716630488.817781) can0 104#0000000018000431
(1716630488.817782) can0 101#16017D00021C0000
(1716630488.817783) can0 105#0403100030020400
(1716630488.819464) can0 106#8906680000000002
(1716630488.819465) can0 116#09000D10000000FF
(1716630488.819466) can0 392#0000FEFEFE000048
(1716630488.820264) can0 0A8#B1CA9E4F9864040F
(1716630488.820265) can0 0A7#BB8BA185FF59C83E
(1716630488.820266) can0 086#D384FE1F00000000
(1716630488.822294) can0 121#9B0E008027507EFE
(1716630488.823230) can0 120#000000070004FF01
(1716630488.824244) can0 107#0000FE33411886C5
(1716630488.825190) can0 0C3#0000000000FD2F00
(1716630488.826131) can0 0B2#0000000000000000
(1716630488.827162) can0 0A8#C3CBBE4F9864020F
(1716630488.828119) can0 176#DF05070000010046
(1716630488.829684) can0 0A7#A98CA185FE59C83E
(1716630488.830665) can0 086#1B86FE1F00000000
(1716630488.831612) can0 040#4384004DC3001430
(1716630488.832677) can0 122#5D8700FE07000078
(1716630488.833632) can0 11B#00A0800100000000
(1716630488.834663) can0 391#558D235500258027
(1716630488.834664) can0 0C3#0000000000FD2F00
(1716630488.835541) can0 104#0000000018000431
(1716630488.836498) can0 101#29027D0002200000
(1716630488.836499) can0 0B2#0000000000000000
(1716630488.836499) can0 0FD#49D01F0000000400
(1716630488.837563) can0 105#0904100030020400
(1716630488.837564) can0 106#1907690000000002
(1716630488.837564) can0 116#6D010D10000000FF
(1716630488.838462) can0 0A8#ADCCBE4F98640A0F
(1716630488.840057) can0 0A7#818DA185FD59C83E
(1716630488.840970) can0 086#3D88FE1F00000000
(1716630488.842044) can0 3C0#350F0300
(1716630488.842917) can0 121#670F008027507EFE
(1716630488.844051) can0 120#000000070004FF01
(1716630488.844907) can0 107#0000FE3441188EC5
(1716630488.844908) can0 0C3#0000000000FD2F00
(1716630488.845851) can0 12B#684D802A00000000
(1716630488.845852) can0 5F0#64E4640000640000
(1716630488.846918) can0 6B4#0000000000435132
(1716630488.846919) can0 0B2#0000000000000000
(1716630488.847796) can0 0A8#0ACDBE4F9864140F
(1716630488.848797) can0 176#7106070000010046
(1716630488.850306) can0 0A7#D28EA185FE59C83E
(1716630488.850307) can0 086#F58AFE1F00000000
(1716630488.853271) can0 122#A88800FE07000078
(1716630488.854215) can0 365#A10216C08F02683C
(1716630488.855164) can0 0C3#0000000000FD2F00
(1716630488.856222) can0 104#0000000018000431
(1716630488.856223) can0 101#9F037D00021B0000
(1716630488.857182) can0 0B2#0000000000000000
(1716630488.857183) can0 0FD#43D11F0000000400
(1716630488.857184) can0 105#8B05100030020400
(1716630488.858129) can0 106#5B08690000000002
(1716630488.858130) can0 116#C1020D10000000FF
(1716630488.859122) can0 0A8#93CEBE8F98641E0F
(1716630488.859123) can0 3C7#FD00000002400300
(1716630488.859124) can0 0A7#A18FA185FF59C83E
(1716630488.860702) can0 31E#00E03F0000000000
(1716630488.860703) can0 086#828CFE1F00000000
(1716630488.860704) can0 32C#001F00006C240010
(1716630488.861819) can0 121#C200008027507EFE
(1716630488.863323) can0 120#000000070004FF01
(1716630488.864251) can0 107#0000FE36411896C5
(1716630488.865223) can0 0C3#0000000000FD2F00
(1716630488.865224) can0 20F#5803000000FDFD6B
(1716630488.865224) can0 30B#001D000008000000
(1716630488.866183) can0 0B2#0000000000000000
(1716630488.867168) can0 0A8#63CFBE8F9864260F
(1716630488.868225) can0 176#F707070000010046
(1716630488.869184) can0 0A7#2A80A185005AC83E
(1716630488.870210) can0 086#4A8EFE1F00000000
(1716630488.871137) can0 040#2785004DC3001430
(1716630488.873159) can0 122#CC8900FE07000078
(1716630488.874086) can0 0C3#0000000000FD2F00
(1716630488.875111) can0 12B#274E802A00000000
(1716630488.876071) can0 104#0000000018000431
(1716630488.876072) can0 101#22047E0002140000
(1716630488.877035) can0 0B2#0000000000000000
(1716630488.877036) can0 0FD#8CD21F0000000400
(1716630488.877036) can0 105#4F06100030020400
(1716630488.878043) can0 106#3F09690000000002
(1716630488.878044) can0 116#A5030D10000000FF
(1716630488.879122) can0 0A8#43C0BE8F98642A0F
(1716630488.879123) can0 0A7#A281A185005AC83E
(1716630488.880048) can0 3DD#1810100000470000
(1716630488.880049) can0 086#6C80FE1F00000000
(1716630488.882560) can0 121#9301008027507EFE
(1716630488.883451) can0 120#000000070004FF01
(1716630488.884704) can0 107#0000FE3741189EC5
(1716630488.885583) can0 3DB#5080110507140198
(1716630488.885584) can0 0C3#0000000000FD2F00
(1716630488.886371) can0 0B2#0000000000000000
(1716630488.887433) can0 0A8#37C1DE8F9864300F
(1716630488.888331) can0 3BE#540EF701A9400C80
(1716630488.889369) can0 176#C708070000010046
(1716630488.889370) can0 0A7#D682A185005AC83E
(1716630488.890304) can0 086#A482FE1F00000000
(1716630488.891597) can0 122#EB8A00FE07000078
(1716630488.892797) can0 0C3#0000000000FD2F00
(1716630488.894056) can0 104#000000001B000431
(1716630488.895743) can0 101#A0057D00020F0000
(1716630488.896713) can0 0B2#0000000000000000
(1716630488.897731) can0 0FD#F9D31F0000000400
(1716630488.897731) can0 105#6C07100030020400
(1716630488.897732) can0 106#670A680000000002
(1716630488.898674) can0 116#B6040D10000000FF
(1716630488.899686) can0 0A8#C7C2DE8F9864320F
(1716630488.899687) can0 0A7#A483A185FF55C83E
(1716630488.899687) can0 086#D384FE1F00000000
(1716630488.901868) can0 121#AC02008027507EFE
(1716630488.903173) can0 120#000000070004FF01
(1716630488.904149) can0 107#0000FE394118A6C5
(1716630488.905094) can0 365#A10216C08F02683C
(1716630488.905094) can0 0C3#0000000000FD2F00
(1716630488.906048) can0 12B#0D4F802A00000000
(1716630488.906049) can0 0B2#0000000000000000
(1716630488.907044) can0 0A8#28C3DE8F9864320F
(1716630488.908024) can0 176#5B09070000010046
(1716630488.909024) can0 0A7#9E84A185FF55C83E
(1716630488.910087) can0 086#1B86FE1F00000000
(1716630488.910088) can0 31E#00E03F0000000000
(1716630488.910969) can0 32C#001F00006C240010
(1716630488.912878) can0 040#6286004DC3001431
(1716630488.914446) can0 1B000010#0050040900322000
(1716630488.915463) can0 122#D68B00FE07000078
(1716630488.915464) can0 0C3#0000000000FD2F00
(1716630488.915466) can0 20F#EC04000000FDFD6B
(1716630488.916490) can0 30B#001E000008000000
(1716630488.916491) can0 104#0000000020000431
(1716630488.916492) can0 101#E3067E0002170000
(1716630488.917467) can0 0B2#0000000000000000
(1716630488.917469) can0 0FD#6FD41F0000000400
(1716630488.917469) can0 105#9B08100030020400
(1716630488.918369) can0 106#F70B690000000002
(1716630488.918370) can0 116#D2050D10000000FF
(1716630488.918370) can0 392#0000FEFEFE000048
(1716630488.919346) can0 0A8#BCC4DE8F9864360F
(1716630488.919347) can0 0A7#4885A185FE55C83E
(1716630488.920319) can0 086#3D88FE1F00000000
(1716630488.922310) can0 121#A303008027507EFE
(1716630488.923351) can0 120#000000070004FF01
(1716630488.924331) can0 107#0000FE3A4118AEC5
(1716630488.925335) can0 0C3#0000000000FD2F00
(1716630488.926325) can0 0B2#0000000000000000
(1716630488.927365) can0 0A8#97C5FE8F9864400F
(1716630488.928257) can0 176#640A070000010046
(1716630488.929367) can0 0A7#F0866185FE55C83E
(1716630488.930260) can0 086#F58AFE1F00000000
(1716630488.933741) can0 122#1C8C00FE07000078
(1716630488.934715) can0 11B#00A0800100000000
(1716630488.935693) can0 391#538D235500258027
(1716630488.935694) can0 0C3#0000000000FD2F00
(1716630488.935695) can0 12B#8640802A00000000
(1716630488.936666) can0 104#0000000023000431
(1716630488.936667) can0 101#D3077E00021A0000
(1716630488.936667) can0 0B2#0000000000000000
(1716630488.937645) can0 0FD#F5D51F0000000400
(1716630488.937647) can0 105#3909100030020400
(1716630488.937647) can0 106#100C680000000002
(1716630488.938659) can0 116#7E060D10000000FF
(1716630488.938660) can0 0A8#F6C6FECF98644A0F
(1716630488.939592) can0 0A7#D4876185FF55C83E
(1716630488.939593) can0 086#828CFE1F00000000
(1716630488.940562) can0 3C0#74000300
(1716630488.944108) can0 121#E404008027507EFE
(1716630488.946828) can0 120#000000070004FF01
(1716630488.948153) can0 107#0000FE3CC117B6C5
(1716630488.948154) can0 0C3#0000000000FD2F00
(1716630488.948154) can0 0B2#0000000000000000
(1716630488.948199) can0 0A8#E3C7FECF98644A0F
(1716630488.948967) can0 176#800B070000010046
(1716630488.949964) can0 0A7#DB8861850056C83E
(1716630488.949966) can0 086#4A8EFE1F00000000
(1716630488.950980) can0 040#0687004DC3001431
(1716630488.953181) can0 122#1B8D00FE07000078
(1716630488.954336) can0 365#A10216C08F02683C
(1716630488.956484) can0 0C3#0000000000FD2F00
(1716630488.957395) can0 104#0000000027000431
(1716630488.957396) can0 101#E4087E0002150000
(1716630488.957397) can0 0B2#0000000000000000
(1716630488.958385) can0 0FD#E7D61F0000000400
(1716630488.958385) can0 105#B00A100030020400
(1716630488.958386) can0 106#740D680000000002
(1716630488.959443) can0 116#1A070D10000000FF
(1716630488.959444) can0 0A8#2BD8FECF9864460F
(1716630488.959444) can0 3C7#9200000002400300
(1716630488.960399) can0 0A7#777961850056D83E
(1716630488.960400) can0 31E#00E03F0000000000
(1716630488.960401) can0 086#6C80FE1F00000000
(1716630488.961330) can0 32C#001F00006C240010
(1716630488.962900) can0 121#F005008027507EFE
(1716630488.963875) can0 120#000000070004FF01
(1716630488.964885) can0 107#0000FE3DC117BDC5
(1716630488.964886) can0 385#0000000000000000
(1716630488.964886) can0 0C3#0000000000FD2F00
(1716630488.966835) can0 20F#F105000000FDFD6B
(1716630488.966836) can0 30B#001F000008000000
(1716630488.966836) can0 12B#F441802A00000000
(1716630488.967818) can0 0B2#0000000000000000
(1716630488.968835) can0 0A8#0DD9FECF9864480F
(1716630488.968836) can0 176#9B0C070000010046
(1716630488.969818) can0 0A7#9E7A6185FE55D83E
(1716630488.969819) can0 153#0000FFFFE0FEDF00
(1716630488.969820) can0 086#A482FE1F00000000
(1716630488.972125) can0 122#408E00FE07000078
(1716630488.972854) can0 0C3#0000000000FD2F00
(1716630488.975197) can0 104#000000002B000431
(1716630488.977221) can0 101#28097E00020E0000
(1716630488.978185) can0 0B2#0000000000000000
(1716630488.978186) can0 0FD#DDD71F0000000400
(1716630488.978186) can0 105#220B100030020400
(1716630488.979141) can0 106#2C0E690000000002
(1716630488.979142) can0 116#58080D10000000FF
(1716630488.979142) can0 0A8#76DAFECF98644E0F
(1716630488.980453) can0 0A7#287B6185FD55D83E
(1716630488.980454) can0 3DD#1810100000470000
(1716630488.980454) can0 086#D384FE1F00000000
(1716630488.981852) can0 121#3406008027507EFE
(1716630488.983050) can0 120#000000070004FF01
(1716630488.984125) can0 107#0000FE3EC117C5C5
(1716630488.985558) can0 3DB#5080110507140198
(1716630488.985559) can0 0C3#0000000000FD2F00
(1716630488.986519) can0 0B2#0000000000000000
(1716630488.987473) can0 0A8#29DB1ED09864540F
(1716630488.988449) can0 3BE#590FF701A9400C80
(1716630488.989480) can0 176#B30D070000010046
(1716630488.989480) can0 0A7#4F7C6185FE55D83E
(1716630488.990492) can0 086#1B86FE1F00000000
(1716630488.991455) can0 040#5088004DC3001432
(1716630488.992395) can0 122#B58F00FE07000078
(1716630488.993333) can0 0C3#0000000000FD2F00
(1716630488.994307) can0 12B#5042802A00000000
(1716630488.995853) can0 0B2#0000000000000000
(1716630488.997851) can0 0FD#1AD81F0000000400
(1716630488.998806) can0 104#0000000030000431
(1716630488.998807) can0 101#C00A7E0002100000
(1716630488.998807) can0 105#0E0C100030020400
(1716630488.999802) can0 106#BC0F680000000002
(1716630488.999803) can0 116#3C090D10000000FF
(1716630488.999804) can0 0A8#2BDC1ED09864560F
(1716630489.000767) can0 0A7#127D6185FF55D83E
(1716630489.000768) can0 086#3D88FE1F00000000
(1716630489.002738) can0 121#6107008027507EFE
(1716630489.003801) can0 120#000000070004FF01
(1716630489.004698) can0 107#0000FE3FC117CDC5
(1716630489.004699) can0 365#A10216C08F02683C
(1716630489.006225) can0 0C3#0000000000FD2F00
(1716630489.007170) can0 0B2#0000000000000000
(1716630489.008152) can0 0A8#38DD1ED09864560F
(1716630489.009136) can0 176#160E070000010046
(1716630489.009137) can0 0A7#997E6185FF55D83E
(1716630489.010161) can0 32C#001F00006C240010
(1716630489.010162) can0 086#F58AFE1F00000000
(1716630489.010163) can0 31E#00E03F0000000000
(1716630489.013083) can0 122#F58000FE07000078
(1716630489.014067) can0 0C3#0000000000FD2F00
(1716630489.015031) can0 20F#0F06000000FDFD6B
(1716630489.016548) can0 30B#0010000008000000
(1716630489.017506) can0 0B2#0000000000000000
(1716630489.017507) can0 0FD#28D91F0000000400
(1716630489.018469) can0 104#0000000035000431
(1716630489.018470) can0 101#9C0B7E00021B0000
(1716630489.018470) can0 105#7E0D100030020400
(1716630489.019510) can0 106#0A00690000000002
(1716630489.019511) can0 116#900A0D10000000FF
(1716630489.019512) can0 392#0000FEFEFE000048
(1716630489.020468) can0 0A8#8ADE1ED09864560F
(1716630489.020469) can0 0A7#EA7F6185FE55D83E
(1716630489.020469) can0 086#828CFE1F00000000
(1716630489.022476) can0 121#2008008027507EFE
(1716630489.024159) can0 120#000000070004FF01
(1716630489.024986) can0 107#0000FE40C117D5C5
(1716630489.025981) can0 0C3#0000000000FD2F00
(1716630489.025982) can0 12B#0843802A00000000
(1716630489.025982) can0 0B2#0000000000000000
(1716630489.026999) can0 0A8#69DF1ED098645C0F
(1716630489.028994) can0 176#9F0F070000010046
(1716630489.029958) can0 0A7#23706185FE55D83E
(1716630489.030914) can0 086#4A8EFE1F00000000
(1716630489.031891) can0 040#3489004DC3001432
(1716630489.032835) can0 122#508100FE07000078
(1716630489.033893) can0 11B#00A0800100000000
(1716630489.034842) can0 391#508D235300258027
(1716630489.034843) can0 0C3#0000000000FD2F00
(1716630489.035759) can0 104#000000003A000431
(1716630489.037311) can0 101#FA0C7E0002210000
(1716630489.037312) can0 0B2#0000000000000000
(1716630489.037313) can0 0FD#64DA1F0000000400
(1716630489.038276) can0 105#FB0E100030020400
(1716630489.038277) can0 106#9A01680000000002
(1716630489.038278) can0 116#F40B0D10000000FF
(1716630489.039265) can0 0A8#1DD01ED098645E0F
(1716630489.039266) can0 0A7#AB716185FE55D83E
(1716630489.040254) can0 086#6C80FE1F00000000
(1716630489.041171) can0 3C0#C1010300
(1716630489.042180) can0 121#6E09008027507EFE
(1716630489.043255) can0 120#000000070004FF01
(1716630489.044139) can0 107#0000FE41C117DDC5
(1716630489.045096) can0 17F00010#2000000000000580
(1716630489.045097) can0 0C3#0000000000FD2F00
(1716630489.046058) can0 5F0#64E4640000640000
(1716630489.046059) can0 0B2#0000000000000000
(1716630489.047640) can0 6B4#02336E746974797D
(1716630489.049680) can0 0A8#3CD11ED09864600F
(1716630489.051051) can0 176#8C00070000010046
(1716630489.051052) can0 0A7#DF726185FE55D83E
(1716630489.053671) can0 086#A482FE1F00000000
(1716630489.054680) can0 122#968200FE07000078
(1716630489.054738) can0 365#A10216C08F02683C
(1716630489.054799) can0 0C3#0000000000FD2F00
(1716630489.055521) can0 12B#8844802A00000000
(1716630489.056876) can0 104#000000003F000431
(1716630489.056876) can0 101#870D7E00021B0000
(1716630489.056877) can0 0B2#0000000000000000
(1716630489.057886) can0 0FD#4BDB1F0000000400
(1716630489.057887) can0 105#C30F100030020400
(1716630489.057888) can0 106#3602680000000002
(1716630489.059966) can0 116#E70C0D10000000FF
(1716630489.059967) can0 0A8#D0D21ED09864600F
(1716630489.060859) can0 3C7#FD00000002400300
(1716630489.060860) can0 0A7#5E736185FE55D83E
(1716630489.060860) can0 086#D384FE1F00000000
(1716630489.061840) can0 31E#00E03F0000000000
(1716630489.061841) can0 32C#001F00006C240010
(1716630489.062785) can0 121#600A008027507EFE
(1716630489.063777) can0 120#000000070004FF01
(1716630489.064879) can0 107#0000FE42C117E5C5
(1716630489.064880) can0 0C3#0000000000FD2F00
(1716630489.065730) can0 20F#CE07000000FDFD6B
(1716630489.065731) can0 30B#0011000008000000
(1716630489.066706) can0 0B2#0000000000000000
(1716630489.068228) can0 0A8#53D31ED098646A0F
(1716630489.070261) can0 176#4B01070000010046
(1716630489.071223) can0 0A7#64746185FE55D83E
(1716630489.071224) can0 086#1B86FE1F00000000
(1716630489.072207) can0 040#718A004DC3001433
(1716630489.073165) can0 122#F18300FE07000078
(1716630489.074611) can0 0C3#0000000000FD2F00
(1716630489.075209) can0 104#0000000045000431
(1716630489.076062) can0 101#C70E7E0002140000
(1716630489.076063) can0 0B2#0000000000000000
(1716630489.077029) can0 0FD#D2DC1F0000000400
(1716630489.077030) can0 105#DC00100030020400
(1716630489.078597) can0 106#A603690000000002
(1716630489.078598) can0 116#830D0D10000000FF
(1716630489.080528) can0 0A8#5CD43ED098646E0F
(1716630489.081471) can0 0A7#1F756185FE55D83E
(1716630489.081471) can0 3DD#1810100000470000
(1716630489.081472) can0 086#3D88FE1F00000000
(1716630489.082475) can0 121#220B008027507EFE
(1716630489.083466) can0 120#000000070004FF01
(1716630489.084450) can0 107#0000FE43C117EDC5
(1716630489.086030) can0 3DB#5080110507140198
(1716630489.086031) can0 0C3#0000000000FD2F00
(1716630489.086346) can0 12B#2D45802A00000000
(1716630489.086347) can0 0B2#0000000000000000
(1716630489.087378) can0 0A8#9ED53ED09864720F
(1716630489.088912) can0 3BE#E000F701A9400C80
(1716630489.089902) can0 176#2202070000010046
(1716630489.089904) can0 0A7#21766185FF55D83E
(1716630489.090826) can0 086#F58AFE1F00000000
(1716630489.091771) can0 122#478400FE07000078
(1716630489.093816) can0 0C3#0000000000FD2F00
(1716630489.094736) can0 104#000000004B000431
(1716630489.095709) can0 101#F20F7D0002130000
(1716630489.096695) can0 0B2#0000000000000000
(1716630489.096696) can0 0FD#5BDD1F0000000400
(1716630489.097764) can0 105#1301100030020400
(1716630489.097765) can0 106#B504690000000002
(1716630489.097766) can0 116#2F0E0D10000000FF
(1716630489.099203) can0 0A8#B2D63ED09864700F
(1716630489.100208) can0 0A7#A8776185FF55D83E
(1716630489.100209) can0 086#828CFE1F00000000
(1716630489.101988) can0 121#770C008027507EFE
(1716630489.103104) can0 120#000000070004FF01
(1716630489.104248) can0 107#0000FE44C117F5C5
(1716630489.105109) can0 365#A10216C08F02683C
(1716630489.105109) can0 0C3#0000000000FD2F00
(1716630489.106035) can0 0B2#0000000000000000
(1716630489.107053) can0 0A8#A7D73ED09864700F
(1716630489.108579) can0 176#CF03070000010046
(1716630489.109576) can0 0A7#48786185FE55D83E
(1716630489.110553) can0 32C#001F00006C240010
(1716630489.110553) can0 086#4A8EFE1F00000000
(1716630489.110554) can0 31E#00E03F0000000000
(1716630489.111463) can0 5EA#00000036F8FEFB0F
(1716630489.112461) can0 040#158B004DC3001433
(1716630489.113449) can0 1B000010#0050040900322000
(1716630489.113450) can0 122#778500FE07000078
(1716630489.114481) can0 0C3#0000000000FD2F00
(1716630489.115456) can0 20F#A208000000FDFD6B
(1716630489.115457) can0 30B#0012000008000000
(1716630489.116306) can0 6B7#9710A204000A0090
(1716630489.116307) can0 12B#3446802A00000000
(1716630489.116307) can0 0B2#0000000000000000
(1716630489.117309) can0 0FD#A4DE1F0000000400
(1716630489.117310) can0 104#0000000052000431
(1716630489.117311) can0 101#B3007D00021B0000
(1716630489.118346) can0 105#5702100030020400
(1716630489.118346) can0 106#D105690000000002
(1716630489.118347) can0 116#4B0F0D10000000FF
(1716630489.119861) can0 392#0000FEFEFE000048
(1716630489.119862) can0 0A8#57D83E109964740F
(1716630489.119863) can0 3BE#0901F70189400C80
(1716630489.120823) can0 0A7#40796185FD55D83E
(1716630489.120823) can0 086#6C80FE1F00000000
(1716630489.122848) can0 121#D30D00C027507EFE
(1716630489.123799) can0 120#000000070004FF01
(1716630489.124803) can0 107#0000FE444117FDC5
(1716630489.124804) can0 0C3#0000000000FD2F00
(1716630489.125792) can0 0B2#0000000000000000
(1716630489.126701) can0 0A8#71D93E1099647A0F
(1716630489.128739) can0 176#6704070000010046
(1716630489.130268) can0 0A7#9E7A6185FE55D83E
(1716630489.131174) can0 086#A482FE1F00000000
(1716630489.132195) can0 122#CB8600FE07000078
(1716630489.133162) can0 11B#00A0800100000000
(1716630489.134166) can0 391#4F8D235300258027
(1716630489.135096) can0 0C3#0000000000FD2F00
(1716630489.136105) can0 104#000000005B000431
(1716630489.136106) can0 101#D3017D00021D0000
(1716630489.137687) can0 0B2#0000000000000000
(1716630489.137688) can0 0FD#33DF1F0000000400
(1716630489.137688) can0 105#0403100030020400
(1716630489.138172) can0 106#8906680000000002
(1716630489.138173) can0 116#09000D10000000FF
(1716630489.139010) can0 0A8#0ADA3E1099647C0F
(1716630489.140596) can0 0A7#F07B6185FE55D83E
(1716630489.140596) can0 086#A984FE9F00000000
(1716630489.142574) can0 3C0#31020300
(1716630489.143472) can0 121#1D0E00C027507EFE
(1716630489.144432) can0 120#000000070004FF01
(1716630489.144433) can0 107#0000FE45411704C6
(1716630489.145433) can0 0C3#0000000000FD2F00
(1716630489.146430) can0 12B#1147802A00000000
(1716630489.146431) can0 0B2#0000000000000000
(1716630489.147428) can0 0A8#DBDB3E1099647E0F
(1716630489.148374) can0 176#DF05070000010046
(1716630489.149320) can0 0A7#4F7C6185FE55D83E
(1716630489.150980) can0 086#1B86FE1F00000000
(1716630489.152835) can0 040#C78C004DC3001434
(1716630489.153786) can0 122#5D8700FE07000078
(1716630489.154773) can0 365#A10216C08E02683C
(1716630489.155921) can0 0C3#0000000000FD2F00
(1716630489.156725) can0 104#0000000062000431
(1716630489.156725) can0 101#7E027D0002160000
(1716630489.156726) can0 0B2#0000000000000000
(1716630489.157688) can0 0FD#49D01F0000000400
(1716630489.157689) can0 105#0904100030020400
(1716630489.157690) can0 106#1907690000000002
(1716630489.158694) can0 116#6D010D10000000FF
(1716630489.158695) can0 0A8#C5DC3E1099647E0F
(1716630489.159981) can0 3C7#9200000002400300
(1716630489.159982) can0 0A7#BF7D6185FE55D83E
(1716630489.159983) can0 086#3D88FE1F00000000
(1716630489.161274) can0 31E#00E03F0000000000
(1716630489.161275) can0 32C#001F00006C240010
(1716630489.162147) can0 121#E10F00C027507EFE
(1716630489.163455) can0 120#000000070004FF01
(1716630489.164397) can0 107#0000FE4641170CC6
(1716630489.165097) can0 0C3#0000000000FD2F00
(1716630489.165098) can0 20F#CC09000000FDFD6B
(1716630489.165099) can0 30B#0013000008000000
(1716630489.166060) can0 0B2#0000000000000000
(1716630489.168398) can0 0A8#48DD5E1099647C0F
(1716630489.169011) can0 176#7106070000010046
(1716630489.169055) can0 0A7#347E6185FE55D83E
(1716630489.169987) can0 153#0000FFFFE0FEDF00
(1716630489.169988) can0 086#F58AFE1F00000000
(1716630489.172508) can0 122#A88800FE07000078
(1716630489.173513) can0 640#00889AC77F600F00
(1716630489.174470) can0 0C3#0000000000FD2F00
(1716630489.175511) can0 12B#C448802A00000000
(1716630489.176660) can0 104#000000006A000431
(1716630489.176660) can0 101#98037D00020D0000
(1716630489.176661) can0 0B2#0000000000000000
(1716630489.177315) can0 0FD#43D11F0000000400
(1716630489.177316) can0 105#8B05100030020400
(1716630489.177316) can0 106#5B08690000000002
(1716630489.178398) can0 116#C1020D10000000FF
(1716630489.178399) can0 0A8#FADE5E1099647C0F
(1716630489.179383) can0 0A7#2B7F2185FD55D83E
(1716630489.180494) can0 3DD#1810100000470000
(1716630489.180495) can0 086#828CFE1F00000000
(1716630489.182892) can0 121#440000C027507EFE
(1716630489.183804) can0 120#000000070004FF01
(1716630489.184809) can0 107#0000FE47411714C6
(1716630489.184810) can0 3DB#5080110507140198
(1716630489.185786) can0 0C3#0000000000FD2F00
(1716630489.186849) can0 0B2#0000000000000000
(1716630489.188016) can0 0A8#0EDF5E109964800F
(1716630489.188773) can0 3BE#6602F70189400C80
(1716630489.189982) can0 176#F707070000010046
(1716630489.189983) can0 0A7#E2702185FD55D83E
(1716630489.189983) can0 65F#00300000E0FF33FF
(1716630489.190719) can0 086#4A8EFE1F00000000
(1716630489.192271) can0 040#A38D004DC3001434
(1716630489.193409) can0 122#CC8900FE07000078
(1716630489.194348) can0 670#163001000001803C
(1716630489.195067) can0 0C3#0000000000FD2F00
(1716630489.196474) can0 0B2#0000000000000000
(1716630489.197059) can0 0FD#8CD21F0000000400
(1716630489.197060) can0 104#0000000072000431
(1716630489.198035) can0 101#AB047D00020D0000
(1716630489.198035) can0 105#4F06100030020400
(1716630489.198036) can0 106#3F09690000000002
(1716630489.198994) can0 116#A5030D10000000FF
(1716630489.198995) can0 0A8#5ED05E109964840F
(1716630489.200172) can0 0A7#73716185FD55D83E
(1716630489.200173) can0 086#6C80FE1F00000000
(1716630489.202019) can0 121#150100C027507EFE
(1716630489.204108) can0 120#000000070004FF01
(1716630489.204448) can0 107#0000FE4741171CC6
(1716630489.205437) can0 365#A10216C08F02683C
(1716630489.205438) can0 0C3#0000000000FD2F00
(1716630489.206382) can0 12B#CC49802A00000000
(1716630489.206382) can0 0B2#0000000000000000
(1716630489.207637) can0 0A8#38D15E109964860F
(1716630489.208353) can0 176#C708070000010046
(1716630489.209325) can0 0A7#DF726185FE55D83E
(1716630489.210342) can0 32C#001F00006C240010
(1716630489.210343) can0 086#DE82FE9F00000000
(1716630489.210344) can0 31E#00E03F0000000000
(1716630489.212949) can0 122#9D8A00FE07000078
(1716630489.213809) can0 556#0000FEFE8300FEAF
(1716630489.214768) can0 0C3#0000000000FD2F00
(1716630489.215876) can0 20F#980A000000FDFD6B
(1716630489.215876) can0 30B#0014000008000000
(1716630489.216705) can0 0B2#0000000000000000
(1716630489.216706) can0 0FD#F9D31F0000000400
(1716630489.217723) can0 104#0000000079000431
(1716630489.217724) can0 101#7C057D0002150000
(1716630489.217725) can0 105#6C07100030020400
(1716630489.218698) can0 106#930A690000000002
(1716630489.218698) can0 116#B6040D10000000FF
(1716630489.218699) can0 392#0000FEFEFE000048
(1716630489.219791) can0 0A8#C8D25E109964840F
(1716630489.219792) can0 0A7#5E736185FE55D83E
(1716630489.219793) can0 086#7E84FE1F01000000
(1716630489.224160) can0 121#2A0200C027507EFE
(1716630489.225115) can0 120#000000070004FF01
(1716630489.225160) can0 107#0000FE48411724C6
(1716630489.225161) can0 0C3#0000000000FD2F00
(1716630489.226072) can0 0B2#0000000000000000
(1716630489.227055) can0 0A8#03D35E109964820F
(1716630489.228061) can0 176#5B09070000010046
(1716630489.229015) can0 0A7#7D742185FE55D83E
(1716630489.230041) can0 086#B686FE1F01000000
(1716630489.231975) can0 040#E68E004DC3001435
(1716630489.233481) can0 122#A08B00FE07000078
(1716630489.235528) can0 11B#00A0800100000000
(1716630489.236792) can0 391#4E8D235200258027
(1716630489.236793) can0 0C3#0000000000FD2F00
(1716630489.238846) can0 12B#DC4A802A00000000
(1716630489.238847) can0 104#0000000080000431
(1716630489.238848) can0 101#A3067D00021A0000
(1716630489.239651) can0 0B2#0000000000000000
(1716630489.239653) can0 0FD#6FD41F0000000400
(1716630489.239653) can0 105#9B08100030020400
(1716630489.240319) can0 106#F70B690000000002
(1716630489.240320) can0 116#D2050D10000000FF
(1716630489.240320) can0 0A8#8BD45E109964840F
(1716630489.241392) can0 0A7#DE752185FD55D83E
(1716630489.241393) can0 086#4788FE9F00000000
(1716630489.242336) can0 3C0#84030300
(1716630489.244156) can0 3D4#ED03820600060000
(1716630489.245768) can0 121#250300C027507EFE
(1716630489.245768) can0 120#000000070004FF01
(1716630489.245769) can0 107#0000FE4841172BC6
(1716630489.246751) can0 0C3#0000000000FD2F00
(1716630489.248211) can0 0B2#0000000000000000
(1716630489.248212) can0 12DD5501#0000000000000000
(1716630489.248756) can0 0A8#A9D55E109964880F
(1716630489.248757) can0 641#04184ACF140F6E52
(1716630489.249737) can0 176#640A070000010046
(1716630489.249739) can0 0A7#4D762185FD55D83E
(1716630489.249739) can0 5F0#64E4640000640000
(1716630489.250638) can0 086#F58AFE1F00000000
(1716630489.251637) can0 65A#0000001800003C44
(1716630489.252684) can0 6B4#0000000000435132
(1716630489.254164) can0 122#6A8C00FE07000078
(1716630489.256143) can0 365#A10216C08F02683C
(1716630489.257082) can0 0C3#0000000000FD2F00
(1716630489.257082) can0 104#0000000087000431
(1716630489.258138) can0 101#8F077D0002160000
(1716630489.258138) can0 0B2#0000000000000000
(1716630489.258139) can0 0FD#F5D51F0000000400
(1716630489.259085) can0 105#3909100030020400
(1716630489.259086) can0 106#E40C690000000002
(1716630489.259086) can0 116#7E060D10000000FF
(1716630489.260417) can0 0A8#A1D65E1099648C0F
(1716630489.260418) can0 3C7#FD00000002400300
(1716630489.260419) can0 0A7#1C772185FE55D83E
(1716630489.260970) can0 31E#00E03F0000000000
(1716630489.260970) can0 086#828CFE1F00000000
(1716630489.260971) can0 32C#001F00006C240010
(1716630489.264722) can0 121#620400C027507EFE
(1716630489.265560) can0 120#000000070004FF01
(1716630489.266485) can0 107#0000FE48411733C6
(1716630489.266486) can0 0C3#0000000000FD2F00
(1716630489.266486) can0 20F#3A0B000000FDFD6B
(1716630489.267466) can0 30B#0015000008000000
(1716630489.267467) can0 12B#794B802A00000000
(1716630489.267467) can0 0B2#0000000000000000
(1716630489.268678) can0 0A8#B4D75E1099648C0F
(1716630489.269458) can0 176#800B070000010046
(1716630489.269459) can0 0A7#79682185FE51D83E
(1716630489.270375) can0 086#4A8EFE1F00000000
(1716630489.271334) can0 040#828F004DC3001435
(1716630489.272347) can0 122#6D8D00FE07000078
(1716630489.273291) can0 0C3#0000000000FD2F00
(1716630489.274283) can0 104#000000008F000431
(1716630489.275888) can0 101#83087D00020C0000
(1716630489.276779) can0 0B2#0000000000000000
(1716630489.277763) can0 0FD#E7D61F0000000400
(1716630489.277763) can0 105#B00A100030020400
(1716630489.277764) can0 106#800D690000000002
(1716630489.278741) can0 116#1A070D10000000FF
(1716630489.278742) can0 0A8#96D85E1099648C0F
(1716630489.279738) can0 0A7#A9692185FE51D83E
(1716630489.279739) can0 3DD#1810100000470000
(1716630489.280716) can0 086#6C80FE1F00000000
(1716630489.283736) can0 121#760500C027507EFE
(1716630489.285140) can0 120#000000070004FF01
(1716630489.286167) can0 107#0000FE4941173BC6
(1716630489.286168) can0 3DB#5080110507140198
(1716630489.286168) can0 0C3#0000000000FD2F00
(1716630489.287123) can0 0B2#0000000000000000
(1716630489.288109) can0 0A8#E4D95E1099648C0F
(1716630489.289130) can0 3BE#9503F70189400C80
(1716630489.289132) can0 176#9B0C070000010046
(1716630489.290040) can0 0A7#FD6A2185FD55D83E
(1716630489.290041) can0 086#DE82FE9F00000000
(1716630489.293022) can0 122#368E00FE07000078
(1716630489.293999) can0 0C3#0000000000FD2F00
(1716630489.295491) can0 12B#3C4C802A00000000
(1716630489.296484) can0 104#0000000097000431
(1716630489.297475) can0 101#5B097E00020D0000
(1716630489.297476) can0 0B2#0000000000000000
(1716630489.297476) can0 0FD#DDD71F0000000400
(1716630489.298471) can0 105#220B100030020400
(1716630489.298472) can0 106#2C0E690000000002
(1716630489.298472) can0 116#58080D10000000FF
(1716630489.299933) can0 0A8#BBDA5E1099648C0F
(1716630489.299933) can0 0A7#936B2185FD55D83E
(1716630489.300505) can0 086#A984FE9F00000000
(1716630489.303316) can0 121#B20600C027507EFE
(1716630489.304493) can0 120#000000070004FF01
(1716630489.305878) can0 107#0000FE49C11643C6
(1716630489.305879) can0 365#A10216C08F02683C
(1716630489.305880) can0 0C3#0000000000FD2F00
(1716630489.307232) can0 0B2#0000000000000000
(1716630489.307879) can0 0A8#DEDB5E109964900F
(1716630489.310435) can0 176#B30D070000010046
(1716630489.311668) can0 0A7#A66C2185FD51D83E
(1716630489.311669) can0 086#1B86FE1F00000000
(1716630489.311715) can0 31E#00E03F0000000000
(1716630489.311716) can0 32C#001F00006C240010
(1716630489.311757) can0 040#D480004DC3001436
(1716630489.312665) can0 1B000010#0050040900322000
(1716630489.313668) can0 122#C38F00FE07000078
(1716630489.314621) can0 0C3#0000000000FD2F00
(1716630489.316203) can0 20F#190C000000FDFD6B
(1716630489.317144) can0 30B#0016000008000000
(1716630489.317145) can0 104#00000000A1000431
(1716630489.317145) can0 101#CD0A7E00021B0000
(1716630489.318112) can0 0B2#0000000000000000
(1716630489.318113) can0 0FD#1AD81F0000000400
(1716630489.318113) can0 105#0E0C100030020400
(1716630489.319080) can0 106#480F690000000002
(1716630489.319081) can0 116#3C090D10000000FF
(1716630489.319081) can0 392#0000FEFEFE000048
(1716630489.320126) can0 0A8#DCDC5E109964920F
(1716630489.320127) can0 0A7#566D2185FD51D83E
(1716630489.320128) can0 086#3D88FE1F00000000
(1716630489.322021) can0 121#E70700C027507EFE
(1716630489.324367) can0 120#000000070004FF01
(1716630489.325541) can0 107#0000FE49C1164BC6
(1716630489.325595) can0 0C3#0000000000FD2F00
(1716630489.325596) can0 12B#684D802A00000000
(1716630489.326497) can0 0B2#0000000000000000
(1716630489.327649) can0 0A8#EBDD5E109964940F
(1716630489.328502) can0 176#160E070000010046
(1716630489.329558) can0 0A7#056E2185FE51D83E
(1716630489.330402) can0 086#F58AFE1F00000000
(1716630489.333404) can0 122#F58000FE07000078
(1716630489.334338) can0 11B#00A0800100000000
(1716630489.335334) can0 391#4D8D235100258027
(1716630489.335335) can0 0C3#0000000000FD2F00
(1716630489.336841) can0 104#00000000AC000431
(1716630489.336841) can0 101#C70B7E00021F0000
(1716630489.338818) can0 0B2#0000000000000000
(1716630489.338819) can0 0FD#28D91F0000000400
(1716630489.338819) can0 105#7E0D100030020400
(1716630489.339835) can0 106#0A00690000000002
(1716630489.339836) can0 116#900A0D10000000FF
(1716630489.339837) can0 0A8#45DE5E109964960F
(1716630489.340798) can0 0A7#DB6F2185FE51D83E
(1716630489.340799) can0 086#828CFE1F00000000
(1716630489.341747) can0 3C0#FE040300
(1716630489.342709) can0 121#A60800C027507EFE
(1716630489.343715) can0 120#000000070004FF01
(1716630489.344665) can0 107#0000FE4AC11652C6
(1716630489.345647) can0 0C3#0000000000FD2F00
(1716630489.347256) can0 0B2#0000000000000000
(1716630489.348184) can0 0A8#9EDF5E109964980F
(1716630489.349169) can0 176#9F0F070000010046
(1716630489.350100) can0 0A7#12602185FE51D83E
(1716630489.350101) can0 086#4A8EFE1F00000000
(1716630489.351055) can0 040#B081004DC3001436
(1716630489.352016) can0 122#508100FE07000078
(1716630489.354017) can0 365#A10216C08F02683C
(1716630489.354979) can0 0C3#0000000000FD2F00
(1716630489.355977) can0 12B#274E802A00000000
(1716630489.357508) can0 104#00000000B5000431
(1716630489.357509) can0 101#D50C7E00021C0000
(1716630489.357510) can0 0B2#0000000000000000
(1716630489.359540) can0 0FD#64DA1F0000000400
(1716630489.359542) can0 105#FB0E100030020400
(1716630489.359542) can0 106#6E01690000000002
(1716630489.360492) can0 116#F40B0D10000000FF
(1716630489.360493) can0 0A8#CED05E1099649C0F
(1716630489.360493) can0 3C7#9200000002400300
(1716630489.361394) can0 0A7#9A612185FE51D83E
(1716630489.361395) can0 31E#00E03F0000000000
(1716630489.361396) can0 086#6C80FE1F00000000
(1716630489.362399) can0 32C#001F00006C240010
(1716630489.363390) can0 121#E80900C027507EFE
(1716630489.364351) can0 120#000000070004FF01
(1716630489.364353) can0 107#0000FE4AC1165AC6
(1716630489.365380) can0 0C3#0000000000FD2F00
(1716630489.365381) can0 20F#2B0D000000FDFD6B
(1716630489.365382) can0 30B#0017000008000000
(1716630489.366264) can0 0B2#0000000000000000
(1716630489.367810) can0 0A8#68D17E109964A00F
(1716630489.369816) can0 3BE#7704F701C9400C80
(1716630489.370737) can0 176#8C00070000010046
(1716630489.370738) can0 0A7#7F622185FE35D83E
(1716630489.370738) can0 153#0000FFFFE0FEDF00
(1716630489.371762) can0 086#A482FE1F00000000
(1716630489.372784) can0 122#968200FE07000078
(1716630489.373741) can0 0C3#0000000000FD2F00
(1716630489.374642) can0 104#00000000BF000431
(1716630489.375682) can0 101#420D7E0002140000
(1716630489.376599) can0 0B2#0000000000000000
(1716630489.378143) can0 0FD#4BDB1F0000000400
(1716630489.378144) can0 105#C30F100030020400
(1716630489.378144) can0 106#C202690000000002
(1716630489.380650) can0 116#E70C0D10000000FF
(1716630489.381162) can0 0A8#BCD27E109964A40F
(1716630489.381163) can0 0A7#E7D35F83FE1DD83E
(1716630489.382075) can0 3DD#1810100000470000
(1716630489.382076) can0 086#D384FE1F00000000
(1716630489.383008) can0 121#E60A00C027507EFE
(1716630489.383978) can0 120#000000070004FF01
(1716630489.384963) can0 107#0000FE4BC11662C6
(1716630489.384963) can0 3DB#5080110507140198
(1716630489.385917) can0 0C3#0000000000FD2F00
(1716630489.385918) can0 12B#0D4F802A00000000
(1716630489.386918) can0 0B2#0000000000000000
(1716630489.388477) can0 0A8#4FD37E109964A60F
(1716630489.390523) can0 3BE#0805F701C9400C80
(1716630489.391396) can0 176#4B01070000010046
(1716630489.391397) can0 0A7#C7D45F83FECDD73E
(1716630489.391397) can0 086#1B86FE1F00000000
(1716630489.392363) can0 040#F582004DC3001437
(1716630489.393416) can0 122#F18300FE07000078
(1716630489.394303) can0 0C3#0000000000FD2F00
(1716630489.395278) can0 0B2#0000000000000000
(1716630489.396284) can0 0FD#D2DC1F0000000400
(1716630489.397314) can0 104#00000000C8000431
(1716630489.397315) can0 101#D70E7E0002130000
(1716630489.398846) can0 105#DC00100030020400
(1716630489.398847) can0 106#A603690000000002
(1716630489.398848) can0 116#830D0D10000000FF
(1716630489.399886) can0 0A8#5CD45E109964A00F
(1716630489.400723) can0 0A7#BCD55F83FECDD73E
(1716630489.400724) can0 086#3D88FE1F00000000
(1716630489.402693) can0 121#A40B00C027507EFE
(1716630489.403675) can0 120#000000070004FF01
(1716630489.404642) can0 107#0000FE4BC11669C6
(1716630489.405613) can0 365#A10215C08F02683C
(1716630489.405614) can0 0C3#0000000000FD2F00
(1716630489.406581) can0 0B2#0000000000000000
(1716630489.407572) can0 0A8#CED57E1099649A0F
(1716630489.409151) can0 176#2202070000010046
(1716630489.410173) can0 0A7#3FD65F7EFDCDD73E
(1716630489.411046) can0 32C#001F00006C240010
(1716630489.411047) can0 086#F58AFE1F00000000
(1716630489.411047) can0 31E#00E03F0000000000
(1716630489.411963) can0 122#478400FE07000078
(1716630489.415055) can0 0C3#0000000000FD2F00
(1716630489.416094) can0 20F#7C0E000000FDFD6B
(1716630489.416965) can0 30B#0018000008000000
(1716630489.416966) can0 12B#8640802A00000000
(1716630489.416966) can0 0B2#0000000000000000
(1716630489.418143) can0 0FD#5BDD1F0000000400
(1716630489.418144) can0 104#00000000D0000431
(1716630489.418145) can0 101#6E0F7E00021B0000
(1716630489.419492) can0 105#1301100030020400
(1716630489.419493) can0 106#B504690000000002
(1716630489.419493) can0 116#2F0E0D10000000FF
(1716630489.420454) can0 392#0000FEFEFE000048
(1716630489.420455) can0 0A8#FED67E1099649A0F
(1716630489.420456) can0 0A7#DCD75F7EFCD1D73E
(1716630489.421403) can0 086#828CFE1F00000000
(1716630489.422375) can0 121#F10C00C027507EFE
(1716630489.423980) can0 120#000000070004FF01
(1716630489.424905) can0 107#0000FE4BC11671C6
(1716630489.425862) can0 0C3#0000000000FD2F00
(1716630489.426822) can0 0B2#0000000000000000
(1716630489.427880) can0 0A8#17D77E109964880F
(1716630489.428927) can0 176#CF03070000010046
(1716630489.429844) can0 0A7#33C85F7EFCD1D73E
(1716630489.429845) can0 086#4A8EFE1F00000000
(1716630489.430781) can0 040#9183004DC3001437
(1716630489.433888) can0 122#778500FE07000078
(1716630489.434697) can0 11B#00A0800100000000
(1716630489.435699) can0 391#178D1C5000268027
(1716630489.435700) can0 0C3#0000000000FD2F00
(1716630489.436636) can0 104#00000000D7000431
(1716630489.436638) can0 101#65007E0002210000
(1716630489.437616) can0 0B2#0000000000000000
(1716630489.437617) can0 0FD#A4DE1F0000000400
(1716630489.437617) can0 105#5702100030020400
(1716630489.438634) can0 106#D105690000000002
(1716630489.438635) can0 116#4B0F0D10000000FF
(1716630489.438636) can0 0A8#80D87E509964560F
(1716630489.440264) can0 0A7#16C95F7EFBCDD73E
(1716630489.441859) can0 086#6C80FE1F00000000
(1716630489.442746) can0 3C0#4B050300
(1716630489.443738) can0 121#D30D00C027507EFE
(1716630489.444677) can0 120#000000070004FF01
(1716630489.444678) can0 107#0000FE4BC11678C6
(1716630489.445660) can0 6B2#1E971082A9BC6024
(1716630489.445660) can0 0C3#0000000000FD2F00
(1716630489.446670) can0 12B#F441802A00000000
(1716630489.446672) can0 5F0#64E4640000640000
(1716630489.446672) can0 6B4#01357B6334726964
(1716630489.447689) can0 0B2#0000000000000000
(1716630489.448663) can0 0A8#E6C97E5099642A0F
(1716630489.449573) can0 176#6704070000010046
(1716630489.449574) can0 0A7#C0CA1F7EF5D5C73E
(1716630489.450571) can0 086#A482FE1F00000000
(1716630489.453589) can0 122#CB8600FE07000078
(1716630489.454480) can0 365#A10215C08F02683C
(1716630489.455521) can0 0C3#0000000000FD2F00
(1716630489.456397) can0 104#00000000DD000431
(1716630489.456399) can0 101#A5017E00021B0000
(1716630489.457482) can0 0B2#0000000000000000
(1716630489.457483) can0 0FD#33DF1F0000000400
(1716630489.457484) can0 105#0403100030020400
(1716630489.458383) can0 106#8906680000000002
(1716630489.458384) can0 116#09000D10000000FF
(1716630489.459357) can0 0A8#9DDA7E109964040F
(1716630489.459358) can0 3C7#FD00000002400300
(1716630489.461105) can0 0A7#19CB1F7EEFD5D73E
(1716630489.461106) can0 086#A984FE9F00000000
(1716630489.461107) can0 31E#00E03F0000000000
(1716630489.461885) can0 32C#001F00006C240010
(1716630489.462891) can0 121#FE0E004028507EFE
(1716630489.463842) can0 120#000000070004FF01
(1716630489.464929) can0 107#0000FE4B41167FC6
(1716630489.464930) can0 0C3#0000000000FD2F00
(1716630489.465796) can0 20F#990F000000FDFD6B
(1716630489.465797) can0 30B#0019000008000000
(1716630489.466774) can0 0B2#0000000000000000
(1716630489.467769) can0 0A8#06DB3E509964E80E
(1716630489.468730) can0 176#DF05070000010046
(1716630489.469701) can0 0A7#56CCDF7DEED1D73E
(1716630489.471347) can0 086#6186FE9F00000000
(1716630489.472243) can0 040#C684004DC3001438
(1716630489.473241) can0 122#5D8700FE07000078
(1716630489.474197) can0 0C3#0000000000FD2F00
(1716630489.475145) can0 12B#5042802A00000000
(1716630489.476155) can0 104#00000000DE000431
(1716630489.477090) can0 101#F0027E0002120000
(1716630489.477091) can0 0B2#0000000000000000
(1716630489.477092) can0 0FD#49D01F0000000400
(1716630489.478179) can0 105#0904100030020400
(1716630489.478181) can0 106#1907690000000002
(1716630489.478181) can0 116#6D010D10000000FF
(1716630489.479111) can0 0A8#D9CC3E509964D20E
(1716630489.480034) can0 0A7#71CDDF7DEFE1C73E
(1716630489.480035) can0 3DD#1810100000470000
(1716630489.480035) can0 086#4788FE9F00000000
(1716630489.483264) can0 121#210F00C028507EFE
(1716630489.484168) can0 120#000000070004FF01
(1716630489.485134) can0 107#0000FE48411686C6
(1716630489.485135) can0 3DB#5080110507140198
(1716630489.485136) can0 0C3#0000000000FD2F00
(1716630489.486108) can0 0B2#0000000000000000
(1716630489.486885) can0 0A8#21CDBE0F9964BC0E
(1716630489.488109) can0 3BE#1506F701C9400C80
(1716630489.489046) can0 176#7106070000010046
(1716630489.490724) can0 0A7#6CCEDF7DF1DDC73E
(1716630489.490726) can0 086#8F8AFE9F00000000
(1716630489.492054) can0 122#A88800FE07000078
(1716630489.493128) can0 0C3#0000000000FD2F00
(1716630489.494420) can0 104#00000000DF000431
(1716630489.496100) can0 101#AD037D0002170000
(1716630489.497048) can0 0B2#0000000000000000
(1716630489.498124) can0 0FD#43D11F0000000400
(1716630489.498125) can0 105#8B05100030020400
(1716630489.498126) can0 106#5B08690000000002
(1716630489.498996) can0 116#C1020D10000000FF
(1716630489.499995) can0 585#563C000022322000
(1716630489.499997) can0 0A8#A0CE9E0F9964A00E
(1716630489.499997) can0 0A7#C7CFDF7DF3DDC73E
(1716630489.500923) can0 086#F88CFE9F00000000
(1716630489.502277) can0 121#840000C028507EFE
(1716630489.503444) can0 120#000000070004FF01
(1716630489.504455) can0 107#0000FE46C1158CC6
(1716630489.505387) can0 365#A10215C09002683C
(1716630489.505388) can0 0C3#0000000000FD2F00
(1716630489.506382) can0 12B#0843802A00000000
(1716630489.506383) can0 0B2#0000000000000000
(1716630489.507418) can0 0A8#83CF9E0F9964780E
(1716630489.508316) can0 176#F707070000010046
(1716630489.509343) can0 0A7#25C0DF7DF3E1C73E
(1716630489.510273) can0 31E#00E03F0000000000
(1716630489.510274) can0 086#4A8EFE1F00000000
(1716630489.510275) can0 32C#001F00006C240010
(1716630489.511254) can0 040#A285004DC3001438
(1716630489.512807) can0 1B000010#0050040900322000
(1716630489.514877) can0 122#CC8900FE07000078
(1716630489.515754) can0 0C3#0000000000FD2F00
(1716630489.516711) can0 20F#A400000000FDFD6B
(1716630489.516712) can0 30B#001A000008000000
(1716630489.516713) can0 104#00000000DF000431
(1716630489.517661) can0 101#F7047D00021E0000
(1716630489.517662) can0 0B2#0000000000000000
(1716630489.517662) can0 0FD#8CD21F0000000400
(1716630489.518622) can0 105#4F06100030020400
(1716630489.518623) can0 106#3F09690000000002
(1716630489.518624) can0 116#A5030D10000000FF
(1716630489.519621) can0 392#0000FEFEFE000048
(1716630489.519622) can0 0A8#43C05E0F9964520E
(1716630489.519623) can0 0A7#D8C1DF7DF1E1C73E
(1716630489.520565) can0 086#6C80FE1F00000000
(1716630489.522699) can0 121#D50100C028507EFE
(1716630489.524324) can0 120#000000070004FF01
(1716630489.525162) can0 107#0000FE44C11592C6
(1716630489.526182) can0 0C3#0000000000FD2F00
(1716630489.527226) can0 0B2#0000000000000000
(1716630489.528150) can0 0A8#5DC15ECF98642A0E
(1716630489.529097) can0 176#C708070000010046
(1716630489.530113) can0 0A7#11C2DF7DEFE1C73E
(1716630489.530114) can0 086#A482FE1F00000000
(1716630489.531885) can0 122#9D8A00FE07000078
(1716630489.533591) can0 11B#00A0800100000000
(1716630489.535536) can0 391#168D1B4100268027
(1716630489.536506) can0 0C3#0000000000FD2F00
(1716630489.537493) can0 12B#8844802A00000000
(1716630489.537494) can0 104#00000000DF000431
(1716630489.537494) can0 101#96057D00021D0000
(1716630489.538471) can0 0B2#0000000000000000
(1716630489.538472) can0 0FD#F9D31F0000000400
(1716630489.538472) can0 105#6C07100030020400
(1716630489.539450) can0 106#930A690000000002
(1716630489.539450) can0 116#B6040D10000000FF
(1716630489.539451) can0 0A8#ACC23ECF9864020E
(1716630489.540431) can0 0A7#C8C35F7EEEE9C73E
(1716630489.540433) can0 086#D384FE1F00000000
(1716630489.541413) can0 3C0#BB060300
(1716630489.542365) can0 121#0D02004029507EFE
(1716630489.543903) can0 120#000000070004FF01
(1716630489.545863) can0 107#0000FE40C11598C6
(1716630489.546858) can0 17F00010#2000000000000580
(1716630489.546859) can0 0C3#0000000000FD2F00
(1716630489.547814) can0 0B2#0000000000000000
(1716630489.548824) can0 0A8#E7C33ECF9864D80D
(1716630489.549799) can0 176#5B09070000010046
(1716630489.549800) can0 0A7#61C41F7EEEEDC73E
(1716630489.550773) can0 086#1B86FE1F00000000
(1716630489.551736) can0 040#E786004DC3001439
(1716630489.552689) can0 122#A08B00FE07000078
(1716630489.554216) can0 365#A10215C09102683C
(1716630489.556657) can0 0C3#0000000000FD2F00
(1716630489.557251) can0 104#00000000DF000431
(1716630489.558225) can0 101#C3067E00021A0000
(1716630489.558226) can0 0B2#0000000000000000
(1716630489.558226) can0 0FD#6FD41F0000000400
(1716630489.559090) can0 105#9B08100030020400
(1716630489.559091) can0 106#F70B690000000002
(1716630489.559091) can0 116#D2050D10000000FF
(1716630489.560177) can0 0A8#D8C4DE8E9864B60D
(1716630489.560178) can0 3C7#9200000002400300
(1716630489.560178) can0 0A7#C2C51F7EEDEDC73E
(1716630489.561059) can0 31E#00E03F0000000000
(1716630489.561060) can0 086#3D88FE1F00000000
(1716630489.561060) can0 32C#001F00006C240010
(1716630489.564896) can0 121#0203004029507EFE
(1716630489.566071) can0 120#000000070004FF01
(1716630489.566480) can0 107#0000FE3C41159DC6
(1716630489.566481) can0 0C3#0000000000FD2F00
(1716630489.566482) can0 20F#FA01000000FDFD6B
(1716630489.567636) can0 30B#001B000008000000
(1716630489.567637) can0 12B#2D45802A00000000
(1716630489.567637) can0 0B2#0000000000000000
(1716630489.568567) can0 0A8#27C59E4E9864900D
(1716630489.569440) can0 176#640A070000010046
(1716630489.569441) can0 0A7#E9C69F7EEDE9C73E
(1716630489.570445) can0 153#0000FFFFE0FEDF00
(1716630489.570446) can0 086#F58AFE1F00000000
(1716630489.573384) can0 122#6A8C00FE07000078
(1716630489.574937) can0 0C3#0000000000FD2F00
(1716630489.577148) can0 104#00000000DF000431
(1716630489.577852) can0 101#C0077E0002150000
(1716630489.577853) can0 0B2#0000000000000000
